UVM_INFO |  ahb_apb_test.sv | 151 | 0 | uvm_test_top          | ahb_apb_read_write_test | Starting combined read/write test
UVM_INFO |    apb_driver.sv | 52 | 5 | uvm_test_top.env_h.apb_agent_h.drv_h | DRV     | APB Driving || PRDATA:2634656705 3618478811 225923355 3202516287 2417962229 3162557955 3664758191 2863675474 PSLVERR:0 PREADY:255
UVM_INFO |   ahb_monitor.sv | 65 | 15 | uvm_test_top.env_h.ahb_agent_h.mon_h | MON     | DUT -> MON RESETn: 0 | HADDR: 0 | HTRANS: 0 | HWRITE: 0 | tx.HWDATA: 0 | vif.HWDATA: x
UVM_INFO |    apb_driver.sv | 52 | 15 | uvm_test_top.env_h.apb_agent_h.drv_h | DRV     | APB Driving || PRDATA:3569285311 4128086808 3188464887 1673818472 3667561319 2135591841 3461459805 1228560978 PSLVERR:0 PREADY:255
UVM_INFO |   apb_monitor.sv | 69 | 15 | uvm_test_top.env_h.apb_agent_h.mon_h | MON     | APB Monitor received || PRDATA:0 0 0 0 0 0 0 0 PSLVERR:0 PWDATA:0 PADDR:0 PWRITE:0
UVM_INFO | ahb_apb_scoreboard.sv | 59 | 15 | uvm_test_top.env_h.sb_h | SCO     | [1] Scoreboard sampled ahb_data_pkt
---------------------------------------
Name       Type             Size  Value
---------------------------------------
tx         ahb_transaction  -     @1018
  HRESETn  integral         1     'h0  
  HADDR    integral         32    'h0  
  HWDATA   integral         32    'h0  
  HWRITE   integral         1     'h0  
  HTRANS   integral         2     'h0  
  HSELAHB  integral         1     'h0  
  HREADY   integral         1     'h0  
---------------------------------------

UVM_INFO | ahb_apb_scoreboard.sv | 64 | 15 | uvm_test_top.env_h.sb_h | SCO     | [1] Scoreboard sampled apb_data_pkt
------------------------------------
Name    Type             Size  Value
------------------------------------
mon2sb  apb_transaction  -     @1022
------------------------------------

UVM_INFO |   ahb_monitor.sv | 65 | 25 | uvm_test_top.env_h.ahb_agent_h.mon_h | MON     | DUT -> MON RESETn: 0 | HADDR: 0 | HTRANS: 0 | HWRITE: 0 | tx.HWDATA: 0 | vif.HWDATA: x
UVM_INFO |    apb_driver.sv | 52 | 25 | uvm_test_top.env_h.apb_agent_h.drv_h | DRV     | APB Driving || PRDATA:1070067368 3304760141 4150102494 3257481711 3907058344 3332805204 3092029642 1241009672 PSLVERR:0 PREADY:255
UVM_INFO |   apb_monitor.sv | 69 | 25 | uvm_test_top.env_h.apb_agent_h.mon_h | MON     | APB Monitor received || PRDATA:2634656705 3618478811 225923355 3202516287 2417962229 3162557955 3664758191 2863675474 PSLVERR:0 PWDATA:0 PADDR:0 PWRITE:0
UVM_INFO | ahb_apb_scoreboard.sv | 59 | 25 | uvm_test_top.env_h.sb_h | SCO     | [2] Scoreboard sampled ahb_data_pkt
---------------------------------------
Name       Type             Size  Value
---------------------------------------
tx         ahb_transaction  -     @1030
  HRESETn  integral         1     'h0  
  HADDR    integral         32    'h0  
  HWDATA   integral         32    'h0  
  HWRITE   integral         1     'h0  
  HTRANS   integral         2     'h0  
  HSELAHB  integral         1     'h0  
  HREADY   integral         1     'h0  
---------------------------------------

UVM_INFO | ahb_apb_scoreboard.sv | 64 | 25 | uvm_test_top.env_h.sb_h | SCO     | [2] Scoreboard sampled apb_data_pkt
------------------------------------
Name    Type             Size  Value
------------------------------------
mon2sb  apb_transaction  -     @1034
------------------------------------

UVM_INFO |    ahb_driver.sv | 86 | 25 | uvm_test_top.env_h.ahb_agent_h.drv_h | DRV     | DRV -> DUT RESETn: 0 | HADDR: 1066 | HTRANS: 0 | HWRITE: 1 | HWDATA: 134713423
UVM_INFO |    ahb_driver.sv | 86 | 35 | uvm_test_top.env_h.ahb_agent_h.drv_h | DRV     | DRV -> DUT RESETn: 1 | HADDR: 1847 | HTRANS: 2 | HWRITE: 1 | HWDATA: 1275024564
UVM_INFO |   ahb_monitor.sv | 65 | 35 | uvm_test_top.env_h.ahb_agent_h.mon_h | MON     | DUT -> MON RESETn: 0 | HADDR: 0 | HTRANS: 0 | HWRITE: 0 | tx.HWDATA: 0 | vif.HWDATA: x
UVM_INFO |    apb_driver.sv | 52 | 35 | uvm_test_top.env_h.apb_agent_h.drv_h | DRV     | APB Driving || PRDATA:841304650 2010341735 2318713362 3691321566 1748307313 2836888672 2871826366 2738775290 PSLVERR:0 PREADY:255
UVM_INFO |   apb_monitor.sv | 69 | 35 | uvm_test_top.env_h.apb_agent_h.mon_h | MON     | APB Monitor received || PRDATA:3569285311 4128086808 3188464887 1673818472 3667561319 2135591841 3461459805 1228560978 PSLVERR:0 PWDATA:0 PADDR:0 PWRITE:0
UVM_INFO | ahb_apb_scoreboard.sv | 59 | 35 | uvm_test_top.env_h.sb_h | SCO     | [3] Scoreboard sampled ahb_data_pkt
---------------------------------------
Name       Type             Size  Value
---------------------------------------
tx         ahb_transaction  -     @1047
  HRESETn  integral         1     'h0  
  HADDR    integral         32    'h0  
  HWDATA   integral         32    'h0  
  HWRITE   integral         1     'h0  
  HTRANS   integral         2     'h0  
  HSELAHB  integral         1     'h0  
  HREADY   integral         1     'h1  
---------------------------------------

UVM_INFO | ahb_apb_scoreboard.sv | 64 | 35 | uvm_test_top.env_h.sb_h | SCO     | [3] Scoreboard sampled apb_data_pkt
------------------------------------
Name    Type             Size  Value
------------------------------------
mon2sb  apb_transaction  -     @1051
------------------------------------

UVM_INFO |    ahb_driver.sv | 86 | 45 | uvm_test_top.env_h.ahb_agent_h.drv_h | DRV     | DRV -> DUT RESETn: 1 | HADDR: 1480 | HTRANS: 0 | HWRITE: 1 | HWDATA: 2693377255
UVM_INFO |   ahb_monitor.sv | 65 | 45 | uvm_test_top.env_h.ahb_agent_h.mon_h | MON     | DUT -> MON RESETn: 0 | HADDR: 1066 | HTRANS: 0 | HWRITE: 1 | tx.HWDATA: 0 | vif.HWDATA: x
UVM_INFO |    apb_driver.sv | 52 | 45 | uvm_test_top.env_h.apb_agent_h.drv_h | DRV     | APB Driving || PRDATA:2881279626 3798905046 2081578879 3245984925 3369443539 3588496360 259052464 80450125 PSLVERR:0 PREADY:255
UVM_INFO |   apb_monitor.sv | 69 | 45 | uvm_test_top.env_h.apb_agent_h.mon_h | MON     | APB Monitor received || PRDATA:1070067368 3304760141 4150102494 3257481711 3907058344 3332805204 3092029642 1241009672 PSLVERR:0 PWDATA:0 PADDR:0 PWRITE:0
UVM_INFO | ahb_apb_scoreboard.sv | 59 | 45 | uvm_test_top.env_h.sb_h | SCO     | [4] Scoreboard sampled ahb_data_pkt
---------------------------------------
Name       Type             Size  Value
---------------------------------------
tx         ahb_transaction  -     @1063
  HRESETn  integral         1     'h0  
  HADDR    integral         32    'h42a
  HWDATA   integral         32    'h0  
  HWRITE   integral         1     'h1  
  HTRANS   integral         2     'h0  
  HSELAHB  integral         1     'h1  
  HREADY   integral         1     'h1  
---------------------------------------

UVM_INFO | ahb_apb_scoreboard.sv | 64 | 45 | uvm_test_top.env_h.sb_h | SCO     | [4] Scoreboard sampled apb_data_pkt
------------------------------------
Name    Type             Size  Value
------------------------------------
mon2sb  apb_transaction  -     @1067
------------------------------------

UVM_INFO |   ahb_monitor.sv | 65 | 55 | uvm_test_top.env_h.ahb_agent_h.mon_h | MON     | DUT -> MON RESETn: 1 | HADDR: 1847 | HTRANS: 2 | HWRITE: 1 | tx.HWDATA: 0 | vif.HWDATA: x
UVM_INFO |    apb_driver.sv | 52 | 55 | uvm_test_top.env_h.apb_agent_h.drv_h | DRV     | APB Driving || PRDATA:239084849 1632568674 2629625021 888501682 280407647 3669354520 4149784463 1401014405 PSLVERR:0 PREADY:255
UVM_INFO |   apb_monitor.sv | 69 | 55 | uvm_test_top.env_h.apb_agent_h.mon_h | MON     | APB Monitor received || PRDATA:841304650 2010341735 2318713362 3691321566 1748307313 2836888672 2871826366 2738775290 PSLVERR:0 PWDATA:0 PADDR:0 PWRITE:0
UVM_INFO | ahb_apb_scoreboard.sv | 59 | 55 | uvm_test_top.env_h.sb_h | SCO     | [5] Scoreboard sampled ahb_data_pkt
---------------------------------------
Name       Type             Size  Value
---------------------------------------
tx         ahb_transaction  -     @1079
  HRESETn  integral         1     'h1  
  HADDR    integral         32    'h737
  HWDATA   integral         32    'h0  
  HWRITE   integral         1     'h1  
  HTRANS   integral         2     'h2  
  HSELAHB  integral         1     'h1  
  HREADY   integral         1     'h0  
---------------------------------------

UVM_INFO | ahb_apb_scoreboard.sv | 64 | 55 | uvm_test_top.env_h.sb_h | SCO     | [5] Scoreboard sampled apb_data_pkt
------------------------------------
Name    Type             Size  Value
------------------------------------
mon2sb  apb_transaction  -     @1083
------------------------------------

UVM_INFO |    ahb_driver.sv | 86 | 55 | uvm_test_top.env_h.ahb_agent_h.drv_h | DRV     | DRV -> DUT RESETn: 1 | HADDR: 1846 | HTRANS: 3 | HWRITE: 1 | HWDATA: 2600642639
UVM_INFO |   ahb_monitor.sv | 65 | 65 | uvm_test_top.env_h.ahb_agent_h.mon_h | MON     | DUT -> MON RESETn: 1 | HADDR: 1480 | HTRANS: 0 | HWRITE: 1 | tx.HWDATA: 1275024564 | vif.HWDATA: 1275024564
UVM_INFO |    apb_driver.sv | 52 | 65 | uvm_test_top.env_h.apb_agent_h.drv_h | DRV     | APB Driving || PRDATA:703079720 1424971494 793173202 1893129646 1728267374 3934183712 1880845674 3676338754 PSLVERR:0 PREADY:255
UVM_INFO |   apb_monitor.sv | 69 | 65 | uvm_test_top.env_h.apb_agent_h.mon_h | MON     | APB Monitor received || PRDATA:2881279626 3798905046 2081578879 3245984925 3369443539 3588496360 259052464 80450125 PSLVERR:0 PWDATA:0 PADDR:0 PWRITE:0
UVM_INFO | ahb_apb_scoreboard.sv | 59 | 65 | uvm_test_top.env_h.sb_h | SCO     | [6] Scoreboard sampled ahb_data_pkt
--------------------------------------------
Name       Type             Size  Value     
--------------------------------------------
tx         ahb_transaction  -     @1091     
  HRESETn  integral         1     'h1       
  HADDR    integral         32    'h5c8     
  HWDATA   integral         32    'h4bff54b4
  HWRITE   integral         1     'h1       
  HTRANS   integral         2     'h0       
  HSELAHB  integral         1     'h1       
  HREADY   integral         1     'h1       
--------------------------------------------

UVM_INFO | ahb_apb_scoreboard.sv | 64 | 65 | uvm_test_top.env_h.sb_h | SCO     | [6] Scoreboard sampled apb_data_pkt
------------------------------------
Name    Type             Size  Value
------------------------------------
mon2sb  apb_transaction  -     @1095
------------------------------------

UVM_INFO |   ahb_monitor.sv | 65 | 75 | uvm_test_top.env_h.ahb_agent_h.mon_h | MON     | DUT -> MON RESETn: 1 | HADDR: 1846 | HTRANS: 3 | HWRITE: 1 | tx.HWDATA: 1275024564 | vif.HWDATA: 1275024564
UVM_INFO |    apb_driver.sv | 52 | 75 | uvm_test_top.env_h.apb_agent_h.drv_h | DRV     | APB Driving || PRDATA:2539599319 2417871654 4284498561 3225672578 3137465455 1156845345 2075856827 3869065199 PSLVERR:0 PREADY:255
UVM_INFO |   apb_monitor.sv | 69 | 75 | uvm_test_top.env_h.apb_agent_h.mon_h | MON     | APB Monitor received || PRDATA:239084849 1632568674 2629625021 888501682 280407647 3669354520 4149784463 1401014405 PSLVERR:0 PWDATA:0 PADDR:0 PWRITE:0
UVM_INFO | ahb_apb_scoreboard.sv | 59 | 75 | uvm_test_top.env_h.sb_h | SCO     | [7] Scoreboard sampled ahb_data_pkt
--------------------------------------------
Name       Type             Size  Value     
--------------------------------------------
tx         ahb_transaction  -     @1103     
  HRESETn  integral         1     'h1       
  HADDR    integral         32    'h736     
  HWDATA   integral         32    'h4bff54b4
  HWRITE   integral         1     'h1       
  HTRANS   integral         2     'h3       
  HSELAHB  integral         1     'h1       
  HREADY   integral         1     'h1       
--------------------------------------------

UVM_INFO | ahb_apb_scoreboard.sv | 64 | 75 | uvm_test_top.env_h.sb_h | SCO     | [7] Scoreboard sampled apb_data_pkt
------------------------------------
Name    Type             Size  Value
------------------------------------
mon2sb  apb_transaction  -     @1107
------------------------------------

UVM_INFO |   ahb_monitor.sv | 65 | 85 | uvm_test_top.env_h.ahb_agent_h.mon_h | MON     | DUT -> MON RESETn: 1 | HADDR: 1846 | HTRANS: 3 | HWRITE: 1 | tx.HWDATA: 1275024564 | vif.HWDATA: 1275024564
UVM_INFO |    apb_driver.sv | 52 | 85 | uvm_test_top.env_h.apb_agent_h.drv_h | DRV     | APB Driving || PRDATA:609707813 2821721718 2059936309 2102527777 4235189186 4265939304 799879403 2805071533 PSLVERR:0 PREADY:255
UVM_INFO |   apb_monitor.sv | 69 | 85 | uvm_test_top.env_h.apb_agent_h.mon_h | MON     | APB Monitor received || PRDATA:703079720 1424971494 793173202 1893129646 1728267374 3934183712 1880845674 3676338754 PSLVERR:0 PWDATA:0 PADDR:0 PWRITE:0
UVM_INFO | ahb_apb_scoreboard.sv | 59 | 85 | uvm_test_top.env_h.sb_h | SCO     | [8] Scoreboard sampled ahb_data_pkt
--------------------------------------------
Name       Type             Size  Value     
--------------------------------------------
tx         ahb_transaction  -     @1115     
  HRESETn  integral         1     'h1       
  HADDR    integral         32    'h736     
  HWDATA   integral         32    'h4bff54b4
  HWRITE   integral         1     'h1       
  HTRANS   integral         2     'h3       
  HSELAHB  integral         1     'h1       
  HREADY   integral         1     'h1       
--------------------------------------------

UVM_INFO | ahb_apb_scoreboard.sv | 64 | 85 | uvm_test_top.env_h.sb_h | SCO     | [8] Scoreboard sampled apb_data_pkt
------------------------------------
Name    Type             Size  Value
------------------------------------
mon2sb  apb_transaction  -     @1119
------------------------------------

UVM_INFO |   ahb_monitor.sv | 65 | 95 | uvm_test_top.env_h.ahb_agent_h.mon_h | MON     | DUT -> MON RESETn: 1 | HADDR: 1846 | HTRANS: 3 | HWRITE: 1 | tx.HWDATA: 1275024564 | vif.HWDATA: 1275024564
UVM_INFO |    apb_driver.sv | 52 | 95 | uvm_test_top.env_h.apb_agent_h.drv_h | DRV     | APB Driving || PRDATA:1270178910 807275949 3039491607 1606996882 4116065483 29957648 3641680414 2436198029 PSLVERR:0 PREADY:255
UVM_INFO |   apb_monitor.sv | 69 | 95 | uvm_test_top.env_h.apb_agent_h.mon_h | MON     | APB Monitor received || PRDATA:2539599319 2417871654 4284498561 3225672578 3137465455 1156845345 2075856827 3869065199 PSLVERR:0 PWDATA:0 PADDR:0 PWRITE:0
UVM_INFO | ahb_apb_scoreboard.sv | 59 | 95 | uvm_test_top.env_h.sb_h | SCO     | [9] Scoreboard sampled ahb_data_pkt
--------------------------------------------
Name       Type             Size  Value     
--------------------------------------------
tx         ahb_transaction  -     @1127     
  HRESETn  integral         1     'h1       
  HADDR    integral         32    'h736     
  HWDATA   integral         32    'h4bff54b4
  HWRITE   integral         1     'h1       
  HTRANS   integral         2     'h3       
  HSELAHB  integral         1     'h1       
  HREADY   integral         1     'h1       
--------------------------------------------

UVM_INFO | ahb_apb_scoreboard.sv | 64 | 95 | uvm_test_top.env_h.sb_h | SCO     | [9] Scoreboard sampled apb_data_pkt
------------------------------------
Name    Type             Size  Value
------------------------------------
mon2sb  apb_transaction  -     @1131
------------------------------------

UVM_INFO |   ahb_monitor.sv | 65 | 105 | uvm_test_top.env_h.ahb_agent_h.mon_h | MON     | DUT -> MON RESETn: 1 | HADDR: 1846 | HTRANS: 3 | HWRITE: 1 | tx.HWDATA: 1275024564 | vif.HWDATA: 1275024564
UVM_INFO |    apb_driver.sv | 52 | 105 | uvm_test_top.env_h.apb_agent_h.drv_h | DRV     | APB Driving || PRDATA:1314584721 3251654303 1073076466 3434862835 43080310 743709731 668123899 1431823625 PSLVERR:0 PREADY:255
UVM_INFO |   apb_monitor.sv | 69 | 105 | uvm_test_top.env_h.apb_agent_h.mon_h | MON     | APB Monitor received || PRDATA:609707813 2821721718 2059936309 2102527777 4235189186 4265939304 799879403 2805071533 PSLVERR:0 PWDATA:0 PADDR:0 PWRITE:0
UVM_INFO | ahb_apb_scoreboard.sv | 59 | 105 | uvm_test_top.env_h.sb_h | SCO     | [10] Scoreboard sampled ahb_data_pkt
--------------------------------------------
Name       Type             Size  Value     
--------------------------------------------
tx         ahb_transaction  -     @1143     
  HRESETn  integral         1     'h1       
  HADDR    integral         32    'h736     
  HWDATA   integral         32    'h4bff54b4
  HWRITE   integral         1     'h1       
  HTRANS   integral         2     'h3       
  HSELAHB  integral         1     'h1       
  HREADY   integral         1     'h1       
--------------------------------------------

UVM_INFO | ahb_apb_scoreboard.sv | 64 | 105 | uvm_test_top.env_h.sb_h | SCO     | [10] Scoreboard sampled apb_data_pkt
------------------------------------
Name    Type             Size  Value
------------------------------------
mon2sb  apb_transaction  -     @1147
------------------------------------

UVM_INFO |    ahb_driver.sv | 86 | 115 | uvm_test_top.env_h.ahb_agent_h.drv_h | DRV     | DRV -> DUT RESETn: 0 | HADDR: 566 | HTRANS: 0 | HWRITE: 0 | HWDATA: 2437879263
UVM_INFO |   ahb_monitor.sv | 65 | 115 | uvm_test_top.env_h.ahb_agent_h.mon_h | MON     | DUT -> MON RESETn: 1 | HADDR: 1846 | HTRANS: 3 | HWRITE: 1 | tx.HWDATA: 1275024564 | vif.HWDATA: 1275024564
UVM_INFO |    apb_driver.sv | 52 | 115 | uvm_test_top.env_h.apb_agent_h.drv_h | DRV     | APB Driving || PRDATA:3936204696 57312303 913275480 4286385041 1675388368 3747179408 1314720146 3050778102 PSLVERR:0 PREADY:255
UVM_INFO |   apb_monitor.sv | 69 | 115 | uvm_test_top.env_h.apb_agent_h.mon_h | MON     | APB Monitor received || PRDATA:1270178910 807275949 3039491607 1606996882 4116065483 29957648 3641680414 2436198029 PSLVERR:0 PWDATA:0 PADDR:0 PWRITE:0
UVM_INFO | ahb_apb_scoreboard.sv | 59 | 115 | uvm_test_top.env_h.sb_h | SCO     | [11] Scoreboard sampled ahb_data_pkt
--------------------------------------------
Name       Type             Size  Value     
--------------------------------------------
tx         ahb_transaction  -     @1155     
  HRESETn  integral         1     'h1       
  HADDR    integral         32    'h736     
  HWDATA   integral         32    'h4bff54b4
  HWRITE   integral         1     'h1       
  HTRANS   integral         2     'h3       
  HSELAHB  integral         1     'h1       
  HREADY   integral         1     'h1       
--------------------------------------------

UVM_INFO | ahb_apb_scoreboard.sv | 64 | 115 | uvm_test_top.env_h.sb_h | SCO     | [11] Scoreboard sampled apb_data_pkt
------------------------------------
Name    Type             Size  Value
------------------------------------
mon2sb  apb_transaction  -     @1159
------------------------------------

UVM_INFO |    ahb_driver.sv | 86 | 125 | uvm_test_top.env_h.ahb_agent_h.drv_h | DRV     | DRV -> DUT RESETn: 1 | HADDR: 1836 | HTRANS: 2 | HWRITE: 0 | HWDATA: 3629767990
UVM_INFO |   ahb_monitor.sv | 65 | 125 | uvm_test_top.env_h.ahb_agent_h.mon_h | MON     | DUT -> MON RESETn: 1 | HADDR: 1846 | HTRANS: 3 | HWRITE: 1 | tx.HWDATA: 1275024564 | vif.HWDATA: 1275024564
UVM_INFO |    apb_driver.sv | 52 | 125 | uvm_test_top.env_h.apb_agent_h.drv_h | DRV     | APB Driving || PRDATA:4102521119 3732354021 1059910457 1835117153 195815746 3807659582 1896506362 3016047651 PSLVERR:0 PREADY:255
UVM_INFO |   apb_monitor.sv | 69 | 125 | uvm_test_top.env_h.apb_agent_h.mon_h | MON     | APB Monitor received || PRDATA:1314584721 3251654303 1073076466 3434862835 43080310 743709731 668123899 1431823625 PSLVERR:0 PWDATA:0 PADDR:0 PWRITE:0
UVM_INFO | ahb_apb_scoreboard.sv | 59 | 125 | uvm_test_top.env_h.sb_h | SCO     | [12] Scoreboard sampled ahb_data_pkt
--------------------------------------------
Name       Type             Size  Value     
--------------------------------------------
tx         ahb_transaction  -     @1171     
  HRESETn  integral         1     'h1       
  HADDR    integral         32    'h736     
  HWDATA   integral         32    'h4bff54b4
  HWRITE   integral         1     'h1       
  HTRANS   integral         2     'h3       
  HSELAHB  integral         1     'h1       
  HREADY   integral         1     'h1       
--------------------------------------------

UVM_INFO | ahb_apb_scoreboard.sv | 64 | 125 | uvm_test_top.env_h.sb_h | SCO     | [12] Scoreboard sampled apb_data_pkt
------------------------------------
Name    Type             Size  Value
------------------------------------
mon2sb  apb_transaction  -     @1175
------------------------------------

UVM_INFO |    ahb_driver.sv | 86 | 135 | uvm_test_top.env_h.ahb_agent_h.drv_h | DRV     | DRV -> DUT RESETn: 1 | HADDR: 286 | HTRANS: 0 | HWRITE: 0 | HWDATA: 2478033797
UVM_INFO |   ahb_monitor.sv | 65 | 135 | uvm_test_top.env_h.ahb_agent_h.mon_h | MON     | DUT -> MON RESETn: 0 | HADDR: 566 | HTRANS: 0 | HWRITE: 0 | tx.HWDATA: 0 | vif.HWDATA: x
UVM_INFO |    apb_driver.sv | 52 | 135 | uvm_test_top.env_h.apb_agent_h.drv_h | DRV     | APB Driving || PRDATA:1473497616 1415015591 3920415785 478990813 2273688686 3200298656 1263453509 342843782 PSLVERR:0 PREADY:255
UVM_INFO |   apb_monitor.sv | 69 | 135 | uvm_test_top.env_h.apb_agent_h.mon_h | MON     | APB Monitor received || PRDATA:3936204696 57312303 913275480 4286385041 1675388368 3747179408 1314720146 3050778102 PSLVERR:0 PWDATA:0 PADDR:0 PWRITE:0
UVM_INFO | ahb_apb_scoreboard.sv | 59 | 135 | uvm_test_top.env_h.sb_h | SCO     | [13] Scoreboard sampled ahb_data_pkt
---------------------------------------
Name       Type             Size  Value
---------------------------------------
tx         ahb_transaction  -     @1187
  HRESETn  integral         1     'h0  
  HADDR    integral         32    'h236
  HWDATA   integral         32    'h0  
  HWRITE   integral         1     'h0  
  HTRANS   integral         2     'h0  
  HSELAHB  integral         1     'h1  
  HREADY   integral         1     'h1  
---------------------------------------

UVM_INFO | ahb_apb_scoreboard.sv | 64 | 135 | uvm_test_top.env_h.sb_h | SCO     | [13] Scoreboard sampled apb_data_pkt
------------------------------------
Name    Type             Size  Value
------------------------------------
mon2sb  apb_transaction  -     @1191
------------------------------------

UVM_INFO |   ahb_monitor.sv | 65 | 145 | uvm_test_top.env_h.ahb_agent_h.mon_h | MON     | DUT -> MON RESETn: 1 | HADDR: 1836 | HTRANS: 2 | HWRITE: 0 | tx.HWDATA: 0 | vif.HWDATA: x
UVM_INFO |    apb_driver.sv | 52 | 145 | uvm_test_top.env_h.apb_agent_h.drv_h | DRV     | APB Driving || PRDATA:3798564111 558689651 1215742078 365080905 471721296 3834454299 3570685238 3221313311 PSLVERR:0 PREADY:255
UVM_INFO |   apb_monitor.sv | 69 | 145 | uvm_test_top.env_h.apb_agent_h.mon_h | MON     | APB Monitor received || PRDATA:4102521119 3732354021 1059910457 1835117153 195815746 3807659582 1896506362 3016047651 PSLVERR:0 PWDATA:0 PADDR:0 PWRITE:0
UVM_INFO | ahb_apb_scoreboard.sv | 59 | 145 | uvm_test_top.env_h.sb_h | SCO     | [14] Scoreboard sampled ahb_data_pkt
---------------------------------------
Name       Type             Size  Value
---------------------------------------
tx         ahb_transaction  -     @1203
  HRESETn  integral         1     'h1  
  HADDR    integral         32    'h72c
  HWDATA   integral         32    'h0  
  HWRITE   integral         1     'h0  
  HTRANS   integral         2     'h2  
  HSELAHB  integral         1     'h1  
  HREADY   integral         1     'h0  
---------------------------------------

UVM_INFO | ahb_apb_scoreboard.sv | 64 | 145 | uvm_test_top.env_h.sb_h | SCO     | [14] Scoreboard sampled apb_data_pkt
------------------------------------
Name    Type             Size  Value
------------------------------------
mon2sb  apb_transaction  -     @1207
------------------------------------

UVM_INFO |    ahb_driver.sv | 86 | 145 | uvm_test_top.env_h.ahb_agent_h.drv_h | DRV     | DRV -> DUT RESETn: 1 | HADDR: 423 | HTRANS: 3 | HWRITE: 0 | HWDATA: 3230730757
UVM_INFO |    ahb_driver.sv | 86 | 155 | uvm_test_top.env_h.ahb_agent_h.drv_h | DRV     | DRV -> DUT RESETn: 0 | HADDR: 908 | HTRANS: 0 | HWRITE: 1 | HWDATA: 310690172
UVM_INFO |   ahb_monitor.sv | 65 | 155 | uvm_test_top.env_h.ahb_agent_h.mon_h | MON     | DUT -> MON RESETn: 1 | HADDR: 286 | HTRANS: 0 | HWRITE: 0 | tx.HWDATA: 0 | vif.HWDATA: x
UVM_INFO |    apb_driver.sv | 52 | 155 | uvm_test_top.env_h.apb_agent_h.drv_h | DRV     | APB Driving || PRDATA:1425934493 256970534 254274288 3257864864 578644388 1023901032 498984630 2296140046 PSLVERR:0 PREADY:255
UVM_INFO |   apb_monitor.sv | 69 | 155 | uvm_test_top.env_h.apb_agent_h.mon_h | MON     | APB Monitor received || PRDATA:1473497616 1415015591 3920415785 478990813 2273688686 3200298656 1263453509 342843782 PSLVERR:0 PWDATA:0 PADDR:0 PWRITE:0
UVM_INFO | ahb_apb_scoreboard.sv | 59 | 155 | uvm_test_top.env_h.sb_h | SCO     | [15] Scoreboard sampled ahb_data_pkt
---------------------------------------
Name       Type             Size  Value
---------------------------------------
tx         ahb_transaction  -     @1219
  HRESETn  integral         1     'h1  
  HADDR    integral         32    'h11e
  HWDATA   integral         32    'h0  
  HWRITE   integral         1     'h0  
  HTRANS   integral         2     'h0  
  HSELAHB  integral         1     'h1  
  HREADY   integral         1     'h1  
---------------------------------------

UVM_INFO | ahb_apb_scoreboard.sv | 64 | 155 | uvm_test_top.env_h.sb_h | SCO     | [15] Scoreboard sampled apb_data_pkt
------------------------------------
Name    Type             Size  Value
------------------------------------
mon2sb  apb_transaction  -     @1223
------------------------------------

UVM_INFO |    ahb_driver.sv | 86 | 165 | uvm_test_top.env_h.ahb_agent_h.drv_h | DRV     | DRV -> DUT RESETn: 1 | HADDR: 1301 | HTRANS: 2 | HWRITE: 1 | HWDATA: 3764200815
UVM_INFO |   ahb_monitor.sv | 65 | 165 | uvm_test_top.env_h.ahb_agent_h.mon_h | MON     | DUT -> MON RESETn: 1 | HADDR: 423 | HTRANS: 3 | HWRITE: 0 | tx.HWDATA: 0 | vif.HWDATA: x
UVM_INFO |    apb_driver.sv | 52 | 165 | uvm_test_top.env_h.apb_agent_h.drv_h | DRV     | APB Driving || PRDATA:2468651754 2544415636 2572433478 2839305372 3214844752 3889056313 1216237888 92406165 PSLVERR:0 PREADY:255
UVM_INFO |   apb_monitor.sv | 69 | 165 | uvm_test_top.env_h.apb_agent_h.mon_h | MON     | APB Monitor received || PRDATA:3798564111 558689651 1215742078 365080905 471721296 3834454299 3570685238 3221313311 PSLVERR:0 PWDATA:0 PADDR:0 PWRITE:0
UVM_INFO | ahb_apb_scoreboard.sv | 59 | 165 | uvm_test_top.env_h.sb_h | SCO     | [16] Scoreboard sampled ahb_data_pkt
---------------------------------------
Name       Type             Size  Value
---------------------------------------
tx         ahb_transaction  -     @1235
  HRESETn  integral         1     'h1  
  HADDR    integral         32    'h1a7
  HWDATA   integral         32    'h0  
  HWRITE   integral         1     'h0  
  HTRANS   integral         2     'h3  
  HSELAHB  integral         1     'h1  
  HREADY   integral         1     'h1  
---------------------------------------

UVM_INFO | ahb_apb_scoreboard.sv | 64 | 165 | uvm_test_top.env_h.sb_h | SCO     | [16] Scoreboard sampled apb_data_pkt
------------------------------------
Name    Type             Size  Value
------------------------------------
mon2sb  apb_transaction  -     @1239
------------------------------------

UVM_INFO |    ahb_driver.sv | 86 | 175 | uvm_test_top.env_h.ahb_agent_h.drv_h | DRV     | DRV -> DUT RESETn: 1 | HADDR: 1066 | HTRANS: 0 | HWRITE: 1 | HWDATA: 1880650891
UVM_INFO |   ahb_monitor.sv | 65 | 175 | uvm_test_top.env_h.ahb_agent_h.mon_h | MON     | DUT -> MON RESETn: 0 | HADDR: 908 | HTRANS: 0 | HWRITE: 1 | tx.HWDATA: 2600642639 | vif.HWDATA: 2600642639
UVM_INFO |    apb_driver.sv | 52 | 175 | uvm_test_top.env_h.apb_agent_h.drv_h | DRV     | APB Driving || PRDATA:4208964113 3550477523 212862145 1298016532 1569451427 305152091 1387927102 4121069462 PSLVERR:0 PREADY:255
UVM_INFO |   apb_monitor.sv | 69 | 175 | uvm_test_top.env_h.apb_agent_h.mon_h | MON     | APB Monitor received || PRDATA:1425934493 256970534 254274288 3257864864 578644388 1023901032 498984630 2296140046 PSLVERR:0 PWDATA:0 PADDR:0 PWRITE:0
UVM_INFO | ahb_apb_scoreboard.sv | 59 | 175 | uvm_test_top.env_h.sb_h | SCO     | [17] Scoreboard sampled ahb_data_pkt
--------------------------------------------
Name       Type             Size  Value     
--------------------------------------------
tx         ahb_transaction  -     @1251     
  HRESETn  integral         1     'h0       
  HADDR    integral         32    'h38c     
  HWDATA   integral         32    'h9b02a84f
  HWRITE   integral         1     'h1       
  HTRANS   integral         2     'h0       
  HSELAHB  integral         1     'h1       
  HREADY   integral         1     'h1       
--------------------------------------------

UVM_INFO | ahb_apb_scoreboard.sv | 64 | 175 | uvm_test_top.env_h.sb_h | SCO     | [17] Scoreboard sampled apb_data_pkt
------------------------------------
Name    Type             Size  Value
------------------------------------
mon2sb  apb_transaction  -     @1255
------------------------------------

UVM_INFO |   ahb_monitor.sv | 65 | 185 | uvm_test_top.env_h.ahb_agent_h.mon_h | MON     | DUT -> MON RESETn: 1 | HADDR: 1301 | HTRANS: 2 | HWRITE: 1 | tx.HWDATA: 2600642639 | vif.HWDATA: 2600642639
UVM_INFO |    apb_driver.sv | 52 | 185 | uvm_test_top.env_h.apb_agent_h.drv_h | DRV     | APB Driving || PRDATA:2173398908 2220978343 1524111369 161487660 1346370041 2410048373 2612117850 2198874454 PSLVERR:0 PREADY:255
UVM_INFO |   apb_monitor.sv | 69 | 185 | uvm_test_top.env_h.apb_agent_h.mon_h | MON     | APB Monitor received || PRDATA:2468651754 2544415636 2572433478 2839305372 3214844752 3889056313 1216237888 92406165 PSLVERR:0 PWDATA:0 PADDR:0 PWRITE:0
UVM_INFO | ahb_apb_scoreboard.sv | 59 | 185 | uvm_test_top.env_h.sb_h | SCO     | [18] Scoreboard sampled ahb_data_pkt
--------------------------------------------
Name       Type             Size  Value     
--------------------------------------------
tx         ahb_transaction  -     @1267     
  HRESETn  integral         1     'h1       
  HADDR    integral         32    'h515     
  HWDATA   integral         32    'h9b02a84f
  HWRITE   integral         1     'h1       
  HTRANS   integral         2     'h2       
  HSELAHB  integral         1     'h1       
  HREADY   integral         1     'h0       
--------------------------------------------

UVM_INFO | ahb_apb_scoreboard.sv | 64 | 185 | uvm_test_top.env_h.sb_h | SCO     | [18] Scoreboard sampled apb_data_pkt
------------------------------------
Name    Type             Size  Value
------------------------------------
mon2sb  apb_transaction  -     @1271
------------------------------------

UVM_INFO |    ahb_driver.sv | 86 | 185 | uvm_test_top.env_h.ahb_agent_h.drv_h | DRV     | DRV -> DUT RESETn: 1 | HADDR: 1290 | HTRANS: 3 | HWRITE: 1 | HWDATA: 3058154274
UVM_INFO |   ahb_monitor.sv | 65 | 195 | uvm_test_top.env_h.ahb_agent_h.mon_h | MON     | DUT -> MON RESETn: 1 | HADDR: 1066 | HTRANS: 0 | HWRITE: 1 | tx.HWDATA: 3764200815 | vif.HWDATA: 3764200815
UVM_INFO |    apb_driver.sv | 52 | 195 | uvm_test_top.env_h.apb_agent_h.drv_h | DRV     | APB Driving || PRDATA:2150222243 1542068051 3699346291 1754588270 3134424877 1997125031 3456577260 4272060598 PSLVERR:0 PREADY:255
UVM_INFO |   apb_monitor.sv | 69 | 195 | uvm_test_top.env_h.apb_agent_h.mon_h | MON     | APB Monitor received || PRDATA:4208964113 3550477523 212862145 1298016532 1569451427 305152091 1387927102 4121069462 PSLVERR:0 PWDATA:0 PADDR:0 PWRITE:0
UVM_INFO | ahb_apb_scoreboard.sv | 59 | 195 | uvm_test_top.env_h.sb_h | SCO     | [19] Scoreboard sampled ahb_data_pkt
--------------------------------------------
Name       Type             Size  Value     
--------------------------------------------
tx         ahb_transaction  -     @1279     
  HRESETn  integral         1     'h1       
  HADDR    integral         32    'h42a     
  HWDATA   integral         32    'he05d256f
  HWRITE   integral         1     'h1       
  HTRANS   integral         2     'h0       
  HSELAHB  integral         1     'h1       
  HREADY   integral         1     'h1       
--------------------------------------------

UVM_INFO | ahb_apb_scoreboard.sv | 64 | 195 | uvm_test_top.env_h.sb_h | SCO     | [19] Scoreboard sampled apb_data_pkt
------------------------------------
Name    Type             Size  Value
------------------------------------
mon2sb  apb_transaction  -     @1283
------------------------------------

UVM_INFO |   ahb_monitor.sv | 65 | 205 | uvm_test_top.env_h.ahb_agent_h.mon_h | MON     | DUT -> MON RESETn: 1 | HADDR: 1290 | HTRANS: 3 | HWRITE: 1 | tx.HWDATA: 3764200815 | vif.HWDATA: 3764200815
UVM_INFO |    apb_driver.sv | 52 | 205 | uvm_test_top.env_h.apb_agent_h.drv_h | DRV     | APB Driving || PRDATA:2799376288 3248869328 1708938216 1457400001 3710359470 3242573178 2441295264 1984749130 PSLVERR:0 PREADY:255
UVM_INFO |   apb_monitor.sv | 69 | 205 | uvm_test_top.env_h.apb_agent_h.mon_h | MON     | APB Monitor received || PRDATA:2173398908 2220978343 1524111369 161487660 1346370041 2410048373 2612117850 2198874454 PSLVERR:0 PWDATA:0 PADDR:0 PWRITE:0
UVM_INFO | ahb_apb_scoreboard.sv | 59 | 205 | uvm_test_top.env_h.sb_h | SCO     | [20] Scoreboard sampled ahb_data_pkt
--------------------------------------------
Name       Type             Size  Value     
--------------------------------------------
tx         ahb_transaction  -     @1291     
  HRESETn  integral         1     'h1       
  HADDR    integral         32    'h50a     
  HWDATA   integral         32    'he05d256f
  HWRITE   integral         1     'h1       
  HTRANS   integral         2     'h3       
  HSELAHB  integral         1     'h1       
  HREADY   integral         1     'h1       
--------------------------------------------

UVM_INFO | ahb_apb_scoreboard.sv | 64 | 205 | uvm_test_top.env_h.sb_h | SCO     | [20] Scoreboard sampled apb_data_pkt
------------------------------------
Name    Type             Size  Value
------------------------------------
mon2sb  apb_transaction  -     @1295
------------------------------------

UVM_INFO |   ahb_monitor.sv | 65 | 215 | uvm_test_top.env_h.ahb_agent_h.mon_h | MON     | DUT -> MON RESETn: 1 | HADDR: 1290 | HTRANS: 3 | HWRITE: 1 | tx.HWDATA: 3764200815 | vif.HWDATA: 3764200815
UVM_INFO |    apb_driver.sv | 52 | 215 | uvm_test_top.env_h.apb_agent_h.drv_h | DRV     | APB Driving || PRDATA:3242599546 2679992758 3391867498 2986900892 3116473930 1633490502 3625391928 541254291 PSLVERR:0 PREADY:255
UVM_INFO |   apb_monitor.sv | 69 | 215 | uvm_test_top.env_h.apb_agent_h.mon_h | MON     | APB Monitor received || PRDATA:2150222243 1542068051 3699346291 1754588270 3134424877 1997125031 3456577260 4272060598 PSLVERR:0 PWDATA:0 PADDR:0 PWRITE:0
UVM_INFO | ahb_apb_scoreboard.sv | 59 | 215 | uvm_test_top.env_h.sb_h | SCO     | [21] Scoreboard sampled ahb_data_pkt
--------------------------------------------
Name       Type             Size  Value     
--------------------------------------------
tx         ahb_transaction  -     @1303     
  HRESETn  integral         1     'h1       
  HADDR    integral         32    'h50a     
  HWDATA   integral         32    'he05d256f
  HWRITE   integral         1     'h1       
  HTRANS   integral         2     'h3       
  HSELAHB  integral         1     'h1       
  HREADY   integral         1     'h1       
--------------------------------------------

UVM_INFO | ahb_apb_scoreboard.sv | 64 | 215 | uvm_test_top.env_h.sb_h | SCO     | [21] Scoreboard sampled apb_data_pkt
------------------------------------
Name    Type             Size  Value
------------------------------------
mon2sb  apb_transaction  -     @1307
------------------------------------

UVM_INFO |   ahb_monitor.sv | 65 | 225 | uvm_test_top.env_h.ahb_agent_h.mon_h | MON     | DUT -> MON RESETn: 1 | HADDR: 1290 | HTRANS: 3 | HWRITE: 1 | tx.HWDATA: 3764200815 | vif.HWDATA: 3764200815
UVM_INFO |    apb_driver.sv | 52 | 225 | uvm_test_top.env_h.apb_agent_h.drv_h | DRV     | APB Driving || PRDATA:39202515 918902414 2847337877 2798810607 383118547 678437317 3180042629 3780857136 PSLVERR:0 PREADY:255
UVM_INFO |   apb_monitor.sv | 69 | 225 | uvm_test_top.env_h.apb_agent_h.mon_h | MON     | APB Monitor received || PRDATA:2799376288 3248869328 1708938216 1457400001 3710359470 3242573178 2441295264 1984749130 PSLVERR:0 PWDATA:0 PADDR:0 PWRITE:0
UVM_INFO | ahb_apb_scoreboard.sv | 59 | 225 | uvm_test_top.env_h.sb_h | SCO     | [22] Scoreboard sampled ahb_data_pkt
--------------------------------------------
Name       Type             Size  Value     
--------------------------------------------
tx         ahb_transaction  -     @1315     
  HRESETn  integral         1     'h1       
  HADDR    integral         32    'h50a     
  HWDATA   integral         32    'he05d256f
  HWRITE   integral         1     'h1       
  HTRANS   integral         2     'h3       
  HSELAHB  integral         1     'h1       
  HREADY   integral         1     'h1       
--------------------------------------------

UVM_INFO | ahb_apb_scoreboard.sv | 64 | 225 | uvm_test_top.env_h.sb_h | SCO     | [22] Scoreboard sampled apb_data_pkt
------------------------------------
Name    Type             Size  Value
------------------------------------
mon2sb  apb_transaction  -     @1319
------------------------------------

UVM_INFO |   ahb_monitor.sv | 65 | 235 | uvm_test_top.env_h.ahb_agent_h.mon_h | MON     | DUT -> MON RESETn: 1 | HADDR: 1290 | HTRANS: 3 | HWRITE: 1 | tx.HWDATA: 3764200815 | vif.HWDATA: 3764200815
UVM_INFO |    apb_driver.sv | 52 | 235 | uvm_test_top.env_h.apb_agent_h.drv_h | DRV     | APB Driving || PRDATA:2327866991 28105373 384812720 3750311442 2419819170 3875893172 3348036384 3872147260 PSLVERR:0 PREADY:255
UVM_INFO |   apb_monitor.sv | 69 | 235 | uvm_test_top.env_h.apb_agent_h.mon_h | MON     | APB Monitor received || PRDATA:3242599546 2679992758 3391867498 2986900892 3116473930 1633490502 3625391928 541254291 PSLVERR:0 PWDATA:0 PADDR:0 PWRITE:0
UVM_INFO | ahb_apb_scoreboard.sv | 59 | 235 | uvm_test_top.env_h.sb_h | SCO     | [23] Scoreboard sampled ahb_data_pkt
--------------------------------------------
Name       Type             Size  Value     
--------------------------------------------
tx         ahb_transaction  -     @1331     
  HRESETn  integral         1     'h1       
  HADDR    integral         32    'h50a     
  HWDATA   integral         32    'he05d256f
  HWRITE   integral         1     'h1       
  HTRANS   integral         2     'h3       
  HSELAHB  integral         1     'h1       
  HREADY   integral         1     'h1       
--------------------------------------------

UVM_INFO | ahb_apb_scoreboard.sv | 64 | 235 | uvm_test_top.env_h.sb_h | SCO     | [23] Scoreboard sampled apb_data_pkt
------------------------------------
Name    Type             Size  Value
------------------------------------
mon2sb  apb_transaction  -     @1335
------------------------------------

UVM_INFO |    ahb_driver.sv | 86 | 245 | uvm_test_top.env_h.ahb_agent_h.drv_h | DRV     | DRV -> DUT RESETn: 0 | HADDR: 1357 | HTRANS: 0 | HWRITE: 0 | HWDATA: 2295666618
UVM_INFO |   ahb_monitor.sv | 65 | 245 | uvm_test_top.env_h.ahb_agent_h.mon_h | MON     | DUT -> MON RESETn: 1 | HADDR: 1290 | HTRANS: 3 | HWRITE: 1 | tx.HWDATA: 3764200815 | vif.HWDATA: 3764200815
UVM_INFO |    apb_driver.sv | 52 | 245 | uvm_test_top.env_h.apb_agent_h.drv_h | DRV     | APB Driving || PRDATA:2751227651 2016235178 2913970334 1057058502 2106382157 2375760142 3341813730 2333919112 PSLVERR:0 PREADY:255
UVM_INFO |   apb_monitor.sv | 69 | 245 | uvm_test_top.env_h.apb_agent_h.mon_h | MON     | APB Monitor received || PRDATA:39202515 918902414 2847337877 2798810607 383118547 678437317 3180042629 3780857136 PSLVERR:0 PWDATA:0 PADDR:0 PWRITE:0
UVM_INFO | ahb_apb_scoreboard.sv | 59 | 245 | uvm_test_top.env_h.sb_h | SCO     | [24] Scoreboard sampled ahb_data_pkt
--------------------------------------------
Name       Type             Size  Value     
--------------------------------------------
tx         ahb_transaction  -     @1343     
  HRESETn  integral         1     'h1       
  HADDR    integral         32    'h50a     
  HWDATA   integral         32    'he05d256f
  HWRITE   integral         1     'h1       
  HTRANS   integral         2     'h3       
  HSELAHB  integral         1     'h1       
  HREADY   integral         1     'h1       
--------------------------------------------

UVM_INFO | ahb_apb_scoreboard.sv | 64 | 245 | uvm_test_top.env_h.sb_h | SCO     | [24] Scoreboard sampled apb_data_pkt
------------------------------------
Name    Type             Size  Value
------------------------------------
mon2sb  apb_transaction  -     @1347
------------------------------------

UVM_INFO |    ahb_driver.sv | 86 | 255 | uvm_test_top.env_h.ahb_agent_h.drv_h | DRV     | DRV -> DUT RESETn: 1 | HADDR: 153 | HTRANS: 2 | HWRITE: 0 | HWDATA: 2301896825
UVM_INFO |   ahb_monitor.sv | 65 | 255 | uvm_test_top.env_h.ahb_agent_h.mon_h | MON     | DUT -> MON RESETn: 1 | HADDR: 1290 | HTRANS: 3 | HWRITE: 1 | tx.HWDATA: 3764200815 | vif.HWDATA: 3764200815
UVM_INFO |    apb_driver.sv | 52 | 255 | uvm_test_top.env_h.apb_agent_h.drv_h | DRV     | APB Driving || PRDATA:3261491268 2143121627 1170767929 1257961258 2427437525 361311732 68033675 2829602049 PSLVERR:0 PREADY:255
UVM_INFO |   apb_monitor.sv | 69 | 255 | uvm_test_top.env_h.apb_agent_h.mon_h | MON     | APB Monitor received || PRDATA:2327866991 28105373 384812720 3750311442 2419819170 3875893172 3348036384 3872147260 PSLVERR:0 PWDATA:0 PADDR:0 PWRITE:0
UVM_INFO | ahb_apb_scoreboard.sv | 59 | 255 | uvm_test_top.env_h.sb_h | SCO     | [25] Scoreboard sampled ahb_data_pkt
--------------------------------------------
Name       Type             Size  Value     
--------------------------------------------
tx         ahb_transaction  -     @1359     
  HRESETn  integral         1     'h1       
  HADDR    integral         32    'h50a     
  HWDATA   integral         32    'he05d256f
  HWRITE   integral         1     'h1       
  HTRANS   integral         2     'h3       
  HSELAHB  integral         1     'h1       
  HREADY   integral         1     'h1       
--------------------------------------------

UVM_INFO | ahb_apb_scoreboard.sv | 64 | 255 | uvm_test_top.env_h.sb_h | SCO     | [25] Scoreboard sampled apb_data_pkt
------------------------------------
Name    Type             Size  Value
------------------------------------
mon2sb  apb_transaction  -     @1363
------------------------------------

UVM_INFO |    ahb_driver.sv | 86 | 265 | uvm_test_top.env_h.ahb_agent_h.drv_h | DRV     | DRV -> DUT RESETn: 1 | HADDR: 1261 | HTRANS: 0 | HWRITE: 0 | HWDATA: 1690154583
UVM_INFO |   ahb_monitor.sv | 65 | 265 | uvm_test_top.env_h.ahb_agent_h.mon_h | MON     | DUT -> MON RESETn: 0 | HADDR: 1357 | HTRANS: 0 | HWRITE: 0 | tx.HWDATA: 0 | vif.HWDATA: x
UVM_INFO |    apb_driver.sv | 52 | 265 | uvm_test_top.env_h.apb_agent_h.drv_h | DRV     | APB Driving || PRDATA:1848093095 945452624 3978790657 2653628630 632166775 4245364417 1397725185 3763534192 PSLVERR:0 PREADY:255
UVM_INFO |   apb_monitor.sv | 69 | 265 | uvm_test_top.env_h.apb_agent_h.mon_h | MON     | APB Monitor received || PRDATA:2751227651 2016235178 2913970334 1057058502 2106382157 2375760142 3341813730 2333919112 PSLVERR:0 PWDATA:0 PADDR:0 PWRITE:0
UVM_INFO | ahb_apb_scoreboard.sv | 59 | 265 | uvm_test_top.env_h.sb_h | SCO     | [26] Scoreboard sampled ahb_data_pkt
---------------------------------------
Name       Type             Size  Value
---------------------------------------
tx         ahb_transaction  -     @1375
  HRESETn  integral         1     'h0  
  HADDR    integral         32    'h54d
  HWDATA   integral         32    'h0  
  HWRITE   integral         1     'h0  
  HTRANS   integral         2     'h0  
  HSELAHB  integral         1     'h1  
  HREADY   integral         1     'h1  
---------------------------------------

UVM_INFO | ahb_apb_scoreboard.sv | 64 | 265 | uvm_test_top.env_h.sb_h | SCO     | [26] Scoreboard sampled apb_data_pkt
------------------------------------
Name    Type             Size  Value
------------------------------------
mon2sb  apb_transaction  -     @1379
------------------------------------

UVM_INFO |   ahb_monitor.sv | 65 | 275 | uvm_test_top.env_h.ahb_agent_h.mon_h | MON     | DUT -> MON RESETn: 1 | HADDR: 153 | HTRANS: 2 | HWRITE: 0 | tx.HWDATA: 0 | vif.HWDATA: x
UVM_INFO |    apb_driver.sv | 52 | 275 | uvm_test_top.env_h.apb_agent_h.drv_h | DRV     | APB Driving || PRDATA:2293467279 1226094096 3990376506 100124893 3248038851 3394127451 103084636 289519988 PSLVERR:0 PREADY:255
UVM_INFO |   apb_monitor.sv | 69 | 275 | uvm_test_top.env_h.apb_agent_h.mon_h | MON     | APB Monitor received || PRDATA:3261491268 2143121627 1170767929 1257961258 2427437525 361311732 68033675 2829602049 PSLVERR:0 PWDATA:0 PADDR:0 PWRITE:0
UVM_INFO | ahb_apb_scoreboard.sv | 59 | 275 | uvm_test_top.env_h.sb_h | SCO     | [27] Scoreboard sampled ahb_data_pkt
---------------------------------------
Name       Type             Size  Value
---------------------------------------
tx         ahb_transaction  -     @1391
  HRESETn  integral         1     'h1  
  HADDR    integral         32    'h99 
  HWDATA   integral         32    'h0  
  HWRITE   integral         1     'h0  
  HTRANS   integral         2     'h2  
  HSELAHB  integral         1     'h1  
  HREADY   integral         1     'h0  
---------------------------------------

UVM_INFO | ahb_apb_scoreboard.sv | 64 | 275 | uvm_test_top.env_h.sb_h | SCO     | [27] Scoreboard sampled apb_data_pkt
------------------------------------
Name    Type             Size  Value
------------------------------------
mon2sb  apb_transaction  -     @1395
------------------------------------

UVM_INFO |    ahb_driver.sv | 86 | 275 | uvm_test_top.env_h.ahb_agent_h.drv_h | DRV     | DRV -> DUT RESETn: 1 | HADDR: 1703 | HTRANS: 3 | HWRITE: 0 | HWDATA: 1434498035
UVM_INFO |    ahb_driver.sv | 86 | 285 | uvm_test_top.env_h.ahb_agent_h.drv_h | DRV     | DRV -> DUT RESETn: 0 | HADDR: 1099 | HTRANS: 0 | HWRITE: 1 | HWDATA: 2612465288
UVM_INFO |   ahb_monitor.sv | 65 | 285 | uvm_test_top.env_h.ahb_agent_h.mon_h | MON     | DUT -> MON RESETn: 1 | HADDR: 1261 | HTRANS: 0 | HWRITE: 0 | tx.HWDATA: 0 | vif.HWDATA: x
UVM_INFO |    apb_driver.sv | 52 | 285 | uvm_test_top.env_h.apb_agent_h.drv_h | DRV     | APB Driving || PRDATA:3364895880 1007099545 1476196966 2935581127 2295148172 3238358684 3875483672 4256159541 PSLVERR:0 PREADY:255
UVM_INFO |   apb_monitor.sv | 69 | 285 | uvm_test_top.env_h.apb_agent_h.mon_h | MON     | APB Monitor received || PRDATA:1848093095 945452624 3978790657 2653628630 632166775 4245364417 1397725185 3763534192 PSLVERR:0 PWDATA:0 PADDR:0 PWRITE:0
UVM_INFO | ahb_apb_scoreboard.sv | 59 | 285 | uvm_test_top.env_h.sb_h | SCO     | [28] Scoreboard sampled ahb_data_pkt
---------------------------------------
Name       Type             Size  Value
---------------------------------------
tx         ahb_transaction  -     @1407
  HRESETn  integral         1     'h1  
  HADDR    integral         32    'h4ed
  HWDATA   integral         32    'h0  
  HWRITE   integral         1     'h0  
  HTRANS   integral         2     'h0  
  HSELAHB  integral         1     'h1  
  HREADY   integral         1     'h1  
---------------------------------------

UVM_INFO | ahb_apb_scoreboard.sv | 64 | 285 | uvm_test_top.env_h.sb_h | SCO     | [28] Scoreboard sampled apb_data_pkt
------------------------------------
Name    Type             Size  Value
------------------------------------
mon2sb  apb_transaction  -     @1411
------------------------------------

UVM_INFO |    ahb_driver.sv | 86 | 295 | uvm_test_top.env_h.ahb_agent_h.drv_h | DRV     | DRV -> DUT RESETn: 1 | HADDR: 606 | HTRANS: 2 | HWRITE: 1 | HWDATA: 1193321773
UVM_INFO |   ahb_monitor.sv | 65 | 295 | uvm_test_top.env_h.ahb_agent_h.mon_h | MON     | DUT -> MON RESETn: 1 | HADDR: 1703 | HTRANS: 3 | HWRITE: 0 | tx.HWDATA: 0 | vif.HWDATA: x
UVM_INFO |    apb_driver.sv | 52 | 295 | uvm_test_top.env_h.apb_agent_h.drv_h | DRV     | APB Driving || PRDATA:2687179562 2136709069 577214811 2587296114 3374203877 2467757381 4019091492 69439516 PSLVERR:0 PREADY:255
UVM_INFO |   apb_monitor.sv | 69 | 295 | uvm_test_top.env_h.apb_agent_h.mon_h | MON     | APB Monitor received || PRDATA:2293467279 1226094096 3990376506 100124893 3248038851 3394127451 103084636 289519988 PSLVERR:0 PWDATA:0 PADDR:0 PWRITE:0
UVM_INFO | ahb_apb_scoreboard.sv | 59 | 295 | uvm_test_top.env_h.sb_h | SCO     | [29] Scoreboard sampled ahb_data_pkt
---------------------------------------
Name       Type             Size  Value
---------------------------------------
tx         ahb_transaction  -     @1423
  HRESETn  integral         1     'h1  
  HADDR    integral         32    'h6a7
  HWDATA   integral         32    'h0  
  HWRITE   integral         1     'h0  
  HTRANS   integral         2     'h3  
  HSELAHB  integral         1     'h1  
  HREADY   integral         1     'h1  
---------------------------------------

UVM_INFO | ahb_apb_scoreboard.sv | 64 | 295 | uvm_test_top.env_h.sb_h | SCO     | [29] Scoreboard sampled apb_data_pkt
------------------------------------
Name    Type             Size  Value
------------------------------------
mon2sb  apb_transaction  -     @1427
------------------------------------

UVM_INFO |    ahb_driver.sv | 86 | 305 | uvm_test_top.env_h.ahb_agent_h.drv_h | DRV     | DRV -> DUT RESETn: 1 | HADDR: 1440 | HTRANS: 0 | HWRITE: 1 | HWDATA: 3881863465
UVM_INFO |   ahb_monitor.sv | 65 | 305 | uvm_test_top.env_h.ahb_agent_h.mon_h | MON     | DUT -> MON RESETn: 0 | HADDR: 1099 | HTRANS: 0 | HWRITE: 1 | tx.HWDATA: 3058154274 | vif.HWDATA: 3058154274
UVM_INFO |    apb_driver.sv | 52 | 305 | uvm_test_top.env_h.apb_agent_h.drv_h | DRV     | APB Driving || PRDATA:135040776 3647057435 2715707601 3999290489 3103265090 2855023165 1177767134 4150156903 PSLVERR:0 PREADY:255
UVM_INFO |   apb_monitor.sv | 69 | 305 | uvm_test_top.env_h.apb_agent_h.mon_h | MON     | APB Monitor received || PRDATA:3364895880 1007099545 1476196966 2935581127 2295148172 3238358684 3875483672 4256159541 PSLVERR:0 PWDATA:0 PADDR:0 PWRITE:0
UVM_INFO | ahb_apb_scoreboard.sv | 59 | 305 | uvm_test_top.env_h.sb_h | SCO     | [30] Scoreboard sampled ahb_data_pkt
--------------------------------------------
Name       Type             Size  Value     
--------------------------------------------
tx         ahb_transaction  -     @1439     
  HRESETn  integral         1     'h0       
  HADDR    integral         32    'h44b     
  HWDATA   integral         32    'hb647bb22
  HWRITE   integral         1     'h1       
  HTRANS   integral         2     'h0       
  HSELAHB  integral         1     'h1       
  HREADY   integral         1     'h1       
--------------------------------------------

UVM_INFO | ahb_apb_scoreboard.sv | 64 | 305 | uvm_test_top.env_h.sb_h | SCO     | [30] Scoreboard sampled apb_data_pkt
------------------------------------
Name    Type             Size  Value
------------------------------------
mon2sb  apb_transaction  -     @1443
------------------------------------

UVM_INFO |   ahb_monitor.sv | 65 | 315 | uvm_test_top.env_h.ahb_agent_h.mon_h | MON     | DUT -> MON RESETn: 1 | HADDR: 606 | HTRANS: 2 | HWRITE: 1 | tx.HWDATA: 3058154274 | vif.HWDATA: 3058154274
UVM_INFO |    apb_driver.sv | 52 | 315 | uvm_test_top.env_h.apb_agent_h.drv_h | DRV     | APB Driving || PRDATA:2480111761 4151090155 2683617700 2699773527 3250743164 2581320280 2041887669 3064789690 PSLVERR:0 PREADY:255
UVM_INFO |   apb_monitor.sv | 69 | 315 | uvm_test_top.env_h.apb_agent_h.mon_h | MON     | APB Monitor received || PRDATA:2687179562 2136709069 577214811 2587296114 3374203877 2467757381 4019091492 69439516 PSLVERR:0 PWDATA:0 PADDR:0 PWRITE:0
UVM_INFO | ahb_apb_scoreboard.sv | 59 | 315 | uvm_test_top.env_h.sb_h | SCO     | [31] Scoreboard sampled ahb_data_pkt
--------------------------------------------
Name       Type             Size  Value     
--------------------------------------------
tx         ahb_transaction  -     @1455     
  HRESETn  integral         1     'h1       
  HADDR    integral         32    'h25e     
  HWDATA   integral         32    'hb647bb22
  HWRITE   integral         1     'h1       
  HTRANS   integral         2     'h2       
  HSELAHB  integral         1     'h1       
  HREADY   integral         1     'h0       
--------------------------------------------

UVM_INFO | ahb_apb_scoreboard.sv | 64 | 315 | uvm_test_top.env_h.sb_h | SCO     | [31] Scoreboard sampled apb_data_pkt
------------------------------------
Name    Type             Size  Value
------------------------------------
mon2sb  apb_transaction  -     @1459
------------------------------------

UVM_INFO |    ahb_driver.sv | 86 | 315 | uvm_test_top.env_h.ahb_agent_h.drv_h | DRV     | DRV -> DUT RESETn: 1 | HADDR: 941 | HTRANS: 3 | HWRITE: 1 | HWDATA: 551041075
UVM_INFO |   ahb_monitor.sv | 65 | 325 | uvm_test_top.env_h.ahb_agent_h.mon_h | MON     | DUT -> MON RESETn: 1 | HADDR: 1440 | HTRANS: 0 | HWRITE: 1 | tx.HWDATA: 1193321773 | vif.HWDATA: 1193321773
UVM_INFO |    apb_driver.sv | 52 | 325 | uvm_test_top.env_h.apb_agent_h.drv_h | DRV     | APB Driving || PRDATA:1262497086 1552039143 2443004827 4051515412 3677640151 530809394 4105403483 60341998 PSLVERR:0 PREADY:255
UVM_INFO |   apb_monitor.sv | 69 | 325 | uvm_test_top.env_h.apb_agent_h.mon_h | MON     | APB Monitor received || PRDATA:135040776 3647057435 2715707601 3999290489 3103265090 2855023165 1177767134 4150156903 PSLVERR:0 PWDATA:0 PADDR:0 PWRITE:0
UVM_INFO | ahb_apb_scoreboard.sv | 59 | 325 | uvm_test_top.env_h.sb_h | SCO     | [32] Scoreboard sampled ahb_data_pkt
--------------------------------------------
Name       Type             Size  Value     
--------------------------------------------
tx         ahb_transaction  -     @1467     
  HRESETn  integral         1     'h1       
  HADDR    integral         32    'h5a0     
  HWDATA   integral         32    'h4720a52d
  HWRITE   integral         1     'h1       
  HTRANS   integral         2     'h0       
  HSELAHB  integral         1     'h1       
  HREADY   integral         1     'h1       
--------------------------------------------

UVM_INFO | ahb_apb_scoreboard.sv | 64 | 325 | uvm_test_top.env_h.sb_h | SCO     | [32] Scoreboard sampled apb_data_pkt
------------------------------------
Name    Type             Size  Value
------------------------------------
mon2sb  apb_transaction  -     @1471
------------------------------------

UVM_INFO |   ahb_monitor.sv | 65 | 335 | uvm_test_top.env_h.ahb_agent_h.mon_h | MON     | DUT -> MON RESETn: 1 | HADDR: 941 | HTRANS: 3 | HWRITE: 1 | tx.HWDATA: 1193321773 | vif.HWDATA: 1193321773
UVM_INFO |    apb_driver.sv | 52 | 335 | uvm_test_top.env_h.apb_agent_h.drv_h | DRV     | APB Driving || PRDATA:1447533477 3811872773 229783841 2229086693 2923292056 1236741895 3394525155 1881328348 PSLVERR:0 PREADY:255
UVM_INFO |   apb_monitor.sv | 69 | 335 | uvm_test_top.env_h.apb_agent_h.mon_h | MON     | APB Monitor received || PRDATA:2480111761 4151090155 2683617700 2699773527 3250743164 2581320280 2041887669 3064789690 PSLVERR:0 PWDATA:0 PADDR:0 PWRITE:0
UVM_INFO | ahb_apb_scoreboard.sv | 59 | 335 | uvm_test_top.env_h.sb_h | SCO     | [33] Scoreboard sampled ahb_data_pkt
--------------------------------------------
Name       Type             Size  Value     
--------------------------------------------
tx         ahb_transaction  -     @1479     
  HRESETn  integral         1     'h1       
  HADDR    integral         32    'h3ad     
  HWDATA   integral         32    'h4720a52d
  HWRITE   integral         1     'h1       
  HTRANS   integral         2     'h3       
  HSELAHB  integral         1     'h1       
  HREADY   integral         1     'h1       
--------------------------------------------

UVM_INFO | ahb_apb_scoreboard.sv | 64 | 335 | uvm_test_top.env_h.sb_h | SCO     | [33] Scoreboard sampled apb_data_pkt
------------------------------------
Name    Type             Size  Value
------------------------------------
mon2sb  apb_transaction  -     @1483
------------------------------------

UVM_INFO |   ahb_monitor.sv | 65 | 345 | uvm_test_top.env_h.ahb_agent_h.mon_h | MON     | DUT -> MON RESETn: 1 | HADDR: 941 | HTRANS: 3 | HWRITE: 1 | tx.HWDATA: 1193321773 | vif.HWDATA: 1193321773
UVM_INFO |    apb_driver.sv | 52 | 345 | uvm_test_top.env_h.apb_agent_h.drv_h | DRV     | APB Driving || PRDATA:2691311153 811971351 3478717435 3153052119 2697186615 2521501829 3412512722 2596526238 PSLVERR:0 PREADY:255
UVM_INFO |   apb_monitor.sv | 69 | 345 | uvm_test_top.env_h.apb_agent_h.mon_h | MON     | APB Monitor received || PRDATA:1262497086 1552039143 2443004827 4051515412 3677640151 530809394 4105403483 60341998 PSLVERR:0 PWDATA:0 PADDR:0 PWRITE:0
UVM_INFO | ahb_apb_scoreboard.sv | 59 | 345 | uvm_test_top.env_h.sb_h | SCO     | [34] Scoreboard sampled ahb_data_pkt
--------------------------------------------
Name       Type             Size  Value     
--------------------------------------------
tx         ahb_transaction  -     @1491     
  HRESETn  integral         1     'h1       
  HADDR    integral         32    'h3ad     
  HWDATA   integral         32    'h4720a52d
  HWRITE   integral         1     'h1       
  HTRANS   integral         2     'h3       
  HSELAHB  integral         1     'h1       
  HREADY   integral         1     'h1       
--------------------------------------------

UVM_INFO | ahb_apb_scoreboard.sv | 64 | 345 | uvm_test_top.env_h.sb_h | SCO     | [34] Scoreboard sampled apb_data_pkt
------------------------------------
Name    Type             Size  Value
------------------------------------
mon2sb  apb_transaction  -     @1495
------------------------------------

UVM_INFO |   ahb_monitor.sv | 65 | 355 | uvm_test_top.env_h.ahb_agent_h.mon_h | MON     | DUT -> MON RESETn: 1 | HADDR: 941 | HTRANS: 3 | HWRITE: 1 | tx.HWDATA: 1193321773 | vif.HWDATA: 1193321773
UVM_INFO |    apb_driver.sv | 52 | 355 | uvm_test_top.env_h.apb_agent_h.drv_h | DRV     | APB Driving || PRDATA:3184277079 113963150 3033449211 562800627 2868741596 2106694106 4193382589 3588089904 PSLVERR:0 PREADY:255
UVM_INFO |   apb_monitor.sv | 69 | 355 | uvm_test_top.env_h.apb_agent_h.mon_h | MON     | APB Monitor received || PRDATA:1447533477 3811872773 229783841 2229086693 2923292056 1236741895 3394525155 1881328348 PSLVERR:0 PWDATA:0 PADDR:0 PWRITE:0
UVM_INFO | ahb_apb_scoreboard.sv | 59 | 355 | uvm_test_top.env_h.sb_h | SCO     | [35] Scoreboard sampled ahb_data_pkt
--------------------------------------------
Name       Type             Size  Value     
--------------------------------------------
tx         ahb_transaction  -     @1503     
  HRESETn  integral         1     'h1       
  HADDR    integral         32    'h3ad     
  HWDATA   integral         32    'h4720a52d
  HWRITE   integral         1     'h1       
  HTRANS   integral         2     'h3       
  HSELAHB  integral         1     'h1       
  HREADY   integral         1     'h1       
--------------------------------------------

UVM_INFO | ahb_apb_scoreboard.sv | 64 | 355 | uvm_test_top.env_h.sb_h | SCO     | [35] Scoreboard sampled apb_data_pkt
------------------------------------
Name    Type             Size  Value
------------------------------------
mon2sb  apb_transaction  -     @1507
------------------------------------

UVM_INFO |   ahb_monitor.sv | 65 | 365 | uvm_test_top.env_h.ahb_agent_h.mon_h | MON     | DUT -> MON RESETn: 1 | HADDR: 941 | HTRANS: 3 | HWRITE: 1 | tx.HWDATA: 1193321773 | vif.HWDATA: 1193321773
UVM_INFO |    apb_driver.sv | 52 | 365 | uvm_test_top.env_h.apb_agent_h.drv_h | DRV     | APB Driving || PRDATA:741255837 2920308492 615939534 2795199050 2780970386 4041216614 564261413 1225927383 PSLVERR:0 PREADY:255
UVM_INFO |   apb_monitor.sv | 69 | 365 | uvm_test_top.env_h.apb_agent_h.mon_h | MON     | APB Monitor received || PRDATA:2691311153 811971351 3478717435 3153052119 2697186615 2521501829 3412512722 2596526238 PSLVERR:0 PWDATA:0 PADDR:0 PWRITE:0
UVM_INFO | ahb_apb_scoreboard.sv | 59 | 365 | uvm_test_top.env_h.sb_h | SCO     | [36] Scoreboard sampled ahb_data_pkt
--------------------------------------------
Name       Type             Size  Value     
--------------------------------------------
tx         ahb_transaction  -     @1519     
  HRESETn  integral         1     'h1       
  HADDR    integral         32    'h3ad     
  HWDATA   integral         32    'h4720a52d
  HWRITE   integral         1     'h1       
  HTRANS   integral         2     'h3       
  HSELAHB  integral         1     'h1       
  HREADY   integral         1     'h1       
--------------------------------------------

UVM_INFO | ahb_apb_scoreboard.sv | 64 | 365 | uvm_test_top.env_h.sb_h | SCO     | [36] Scoreboard sampled apb_data_pkt
------------------------------------
Name    Type             Size  Value
------------------------------------
mon2sb  apb_transaction  -     @1523
------------------------------------

UVM_INFO |    ahb_driver.sv | 86 | 375 | uvm_test_top.env_h.ahb_agent_h.drv_h | DRV     | DRV -> DUT RESETn: 0 | HADDR: 1054 | HTRANS: 0 | HWRITE: 0 | HWDATA: 1958263658
UVM_INFO |   ahb_monitor.sv | 65 | 375 | uvm_test_top.env_h.ahb_agent_h.mon_h | MON     | DUT -> MON RESETn: 1 | HADDR: 941 | HTRANS: 3 | HWRITE: 1 | tx.HWDATA: 1193321773 | vif.HWDATA: 1193321773
UVM_INFO |    apb_driver.sv | 52 | 375 | uvm_test_top.env_h.apb_agent_h.drv_h | DRV     | APB Driving || PRDATA:1751820173 3652666411 1201827909 3360712982 3744194985 3655011854 2121172488 3606654982 PSLVERR:0 PREADY:255
UVM_INFO |   apb_monitor.sv | 69 | 375 | uvm_test_top.env_h.apb_agent_h.mon_h | MON     | APB Monitor received || PRDATA:3184277079 113963150 3033449211 562800627 2868741596 2106694106 4193382589 3588089904 PSLVERR:0 PWDATA:0 PADDR:0 PWRITE:0
UVM_INFO | ahb_apb_scoreboard.sv | 59 | 375 | uvm_test_top.env_h.sb_h | SCO     | [37] Scoreboard sampled ahb_data_pkt
--------------------------------------------
Name       Type             Size  Value     
--------------------------------------------
tx         ahb_transaction  -     @1531     
  HRESETn  integral         1     'h1       
  HADDR    integral         32    'h3ad     
  HWDATA   integral         32    'h4720a52d
  HWRITE   integral         1     'h1       
  HTRANS   integral         2     'h3       
  HSELAHB  integral         1     'h1       
  HREADY   integral         1     'h1       
--------------------------------------------

UVM_INFO | ahb_apb_scoreboard.sv | 64 | 375 | uvm_test_top.env_h.sb_h | SCO     | [37] Scoreboard sampled apb_data_pkt
------------------------------------
Name    Type             Size  Value
------------------------------------
mon2sb  apb_transaction  -     @1535
------------------------------------

UVM_INFO |    ahb_driver.sv | 86 | 385 | uvm_test_top.env_h.ahb_agent_h.drv_h | DRV     | DRV -> DUT RESETn: 1 | HADDR: 917 | HTRANS: 2 | HWRITE: 0 | HWDATA: 3365965633
UVM_INFO |   ahb_monitor.sv | 65 | 385 | uvm_test_top.env_h.ahb_agent_h.mon_h | MON     | DUT -> MON RESETn: 1 | HADDR: 941 | HTRANS: 3 | HWRITE: 1 | tx.HWDATA: 1193321773 | vif.HWDATA: 1193321773
UVM_INFO |    apb_driver.sv | 52 | 385 | uvm_test_top.env_h.apb_agent_h.drv_h | DRV     | APB Driving || PRDATA:845431845 2804877794 2330328160 1650571071 3486212914 3216912823 3761711553 4075193181 PSLVERR:0 PREADY:255
UVM_INFO |   apb_monitor.sv | 69 | 385 | uvm_test_top.env_h.apb_agent_h.mon_h | MON     | APB Monitor received || PRDATA:741255837 2920308492 615939534 2795199050 2780970386 4041216614 564261413 1225927383 PSLVERR:0 PWDATA:0 PADDR:0 PWRITE:0
UVM_INFO | ahb_apb_scoreboard.sv | 59 | 385 | uvm_test_top.env_h.sb_h | SCO     | [38] Scoreboard sampled ahb_data_pkt
--------------------------------------------
Name       Type             Size  Value     
--------------------------------------------
tx         ahb_transaction  -     @1547     
  HRESETn  integral         1     'h1       
  HADDR    integral         32    'h3ad     
  HWDATA   integral         32    'h4720a52d
  HWRITE   integral         1     'h1       
  HTRANS   integral         2     'h3       
  HSELAHB  integral         1     'h1       
  HREADY   integral         1     'h1       
--------------------------------------------

UVM_INFO | ahb_apb_scoreboard.sv | 64 | 385 | uvm_test_top.env_h.sb_h | SCO     | [38] Scoreboard sampled apb_data_pkt
------------------------------------
Name    Type             Size  Value
------------------------------------
mon2sb  apb_transaction  -     @1551
------------------------------------

UVM_INFO |    ahb_driver.sv | 86 | 395 | uvm_test_top.env_h.ahb_agent_h.drv_h | DRV     | DRV -> DUT RESETn: 1 | HADDR: 606 | HTRANS: 0 | HWRITE: 0 | HWDATA: 1241585389
UVM_INFO |   ahb_monitor.sv | 65 | 395 | uvm_test_top.env_h.ahb_agent_h.mon_h | MON     | DUT -> MON RESETn: 0 | HADDR: 1054 | HTRANS: 0 | HWRITE: 0 | tx.HWDATA: 0 | vif.HWDATA: x
UVM_INFO |    apb_driver.sv | 52 | 395 | uvm_test_top.env_h.apb_agent_h.drv_h | DRV     | APB Driving || PRDATA:1236556417 3408511224 360547821 3148347285 4220152302 3006125091 730524243 2613717811 PSLVERR:0 PREADY:255
UVM_INFO |   apb_monitor.sv | 69 | 395 | uvm_test_top.env_h.apb_agent_h.mon_h | MON     | APB Monitor received || PRDATA:1751820173 3652666411 1201827909 3360712982 3744194985 3655011854 2121172488 3606654982 PSLVERR:0 PWDATA:0 PADDR:0 PWRITE:0
UVM_INFO | ahb_apb_scoreboard.sv | 59 | 395 | uvm_test_top.env_h.sb_h | SCO     | [39] Scoreboard sampled ahb_data_pkt
---------------------------------------
Name       Type             Size  Value
---------------------------------------
tx         ahb_transaction  -     @1563
  HRESETn  integral         1     'h0  
  HADDR    integral         32    'h41e
  HWDATA   integral         32    'h0  
  HWRITE   integral         1     'h0  
  HTRANS   integral         2     'h0  
  HSELAHB  integral         1     'h1  
  HREADY   integral         1     'h1  
---------------------------------------

UVM_INFO | ahb_apb_scoreboard.sv | 64 | 395 | uvm_test_top.env_h.sb_h | SCO     | [39] Scoreboard sampled apb_data_pkt
------------------------------------
Name    Type             Size  Value
------------------------------------
mon2sb  apb_transaction  -     @1567
------------------------------------

UVM_INFO |   ahb_monitor.sv | 65 | 405 | uvm_test_top.env_h.ahb_agent_h.mon_h | MON     | DUT -> MON RESETn: 1 | HADDR: 917 | HTRANS: 2 | HWRITE: 0 | tx.HWDATA: 0 | vif.HWDATA: x
UVM_INFO |    apb_driver.sv | 52 | 405 | uvm_test_top.env_h.apb_agent_h.drv_h | DRV     | APB Driving || PRDATA:3011518541 2793801594 3155635443 2216943563 869650334 1667974709 4230538243 3921491346 PSLVERR:0 PREADY:255
UVM_INFO |   apb_monitor.sv | 69 | 405 | uvm_test_top.env_h.apb_agent_h.mon_h | MON     | APB Monitor received || PRDATA:845431845 2804877794 2330328160 1650571071 3486212914 3216912823 3761711553 4075193181 PSLVERR:0 PWDATA:0 PADDR:0 PWRITE:0
UVM_INFO | ahb_apb_scoreboard.sv | 59 | 405 | uvm_test_top.env_h.sb_h | SCO     | [40] Scoreboard sampled ahb_data_pkt
---------------------------------------
Name       Type             Size  Value
---------------------------------------
tx         ahb_transaction  -     @1579
  HRESETn  integral         1     'h1  
  HADDR    integral         32    'h395
  HWDATA   integral         32    'h0  
  HWRITE   integral         1     'h0  
  HTRANS   integral         2     'h2  
  HSELAHB  integral         1     'h1  
  HREADY   integral         1     'h0  
---------------------------------------

UVM_INFO | ahb_apb_scoreboard.sv | 64 | 405 | uvm_test_top.env_h.sb_h | SCO     | [40] Scoreboard sampled apb_data_pkt
------------------------------------
Name    Type             Size  Value
------------------------------------
mon2sb  apb_transaction  -     @1583
------------------------------------

UVM_INFO |    ahb_driver.sv | 86 | 405 | uvm_test_top.env_h.ahb_agent_h.drv_h | DRV     | DRV -> DUT RESETn: 1 | HADDR: 1826 | HTRANS: 3 | HWRITE: 0 | HWDATA: 3371908753
UVM_INFO |    ahb_driver.sv | 86 | 415 | uvm_test_top.env_h.ahb_agent_h.drv_h | DRV     | DRV -> DUT RESETn: 0 | HADDR: 302 | HTRANS: 0 | HWRITE: 1 | HWDATA: 2004000192
UVM_INFO |   ahb_monitor.sv | 65 | 415 | uvm_test_top.env_h.ahb_agent_h.mon_h | MON     | DUT -> MON RESETn: 1 | HADDR: 606 | HTRANS: 0 | HWRITE: 0 | tx.HWDATA: 0 | vif.HWDATA: x
UVM_INFO |    apb_driver.sv | 52 | 415 | uvm_test_top.env_h.apb_agent_h.drv_h | DRV     | APB Driving || PRDATA:4059071986 361112243 2591974613 396664350 722661133 2733833110 2715316662 3582378057 PSLVERR:0 PREADY:255
UVM_INFO |   apb_monitor.sv | 69 | 415 | uvm_test_top.env_h.apb_agent_h.mon_h | MON     | APB Monitor received || PRDATA:1236556417 3408511224 360547821 3148347285 4220152302 3006125091 730524243 2613717811 PSLVERR:0 PWDATA:0 PADDR:0 PWRITE:0
UVM_INFO | ahb_apb_scoreboard.sv | 59 | 415 | uvm_test_top.env_h.sb_h | SCO     | [41] Scoreboard sampled ahb_data_pkt
---------------------------------------
Name       Type             Size  Value
---------------------------------------
tx         ahb_transaction  -     @1595
  HRESETn  integral         1     'h1  
  HADDR    integral         32    'h25e
  HWDATA   integral         32    'h0  
  HWRITE   integral         1     'h0  
  HTRANS   integral         2     'h0  
  HSELAHB  integral         1     'h1  
  HREADY   integral         1     'h1  
---------------------------------------

UVM_INFO | ahb_apb_scoreboard.sv | 64 | 415 | uvm_test_top.env_h.sb_h | SCO     | [41] Scoreboard sampled apb_data_pkt
------------------------------------
Name    Type             Size  Value
------------------------------------
mon2sb  apb_transaction  -     @1599
------------------------------------

UVM_INFO |    ahb_driver.sv | 86 | 425 | uvm_test_top.env_h.ahb_agent_h.drv_h | DRV     | DRV -> DUT RESETn: 1 | HADDR: 1979 | HTRANS: 2 | HWRITE: 1 | HWDATA: 3822340145
UVM_INFO |   ahb_monitor.sv | 65 | 425 | uvm_test_top.env_h.ahb_agent_h.mon_h | MON     | DUT -> MON RESETn: 1 | HADDR: 1826 | HTRANS: 3 | HWRITE: 0 | tx.HWDATA: 0 | vif.HWDATA: x
UVM_INFO |    apb_driver.sv | 52 | 425 | uvm_test_top.env_h.apb_agent_h.drv_h | DRV     | APB Driving || PRDATA:9114328 2434330544 206493201 2110862782 646082187 1399778138 102516329 306672597 PSLVERR:0 PREADY:255
UVM_INFO |   apb_monitor.sv | 69 | 425 | uvm_test_top.env_h.apb_agent_h.mon_h | MON     | APB Monitor received || PRDATA:3011518541 2793801594 3155635443 2216943563 869650334 1667974709 4230538243 3921491346 PSLVERR:0 PWDATA:0 PADDR:0 PWRITE:0
UVM_INFO | ahb_apb_scoreboard.sv | 59 | 425 | uvm_test_top.env_h.sb_h | SCO     | [42] Scoreboard sampled ahb_data_pkt
---------------------------------------
Name       Type             Size  Value
---------------------------------------
tx         ahb_transaction  -     @1611
  HRESETn  integral         1     'h1  
  HADDR    integral         32    'h722
  HWDATA   integral         32    'h0  
  HWRITE   integral         1     'h0  
  HTRANS   integral         2     'h3  
  HSELAHB  integral         1     'h1  
  HREADY   integral         1     'h1  
---------------------------------------

UVM_INFO | ahb_apb_scoreboard.sv | 64 | 425 | uvm_test_top.env_h.sb_h | SCO     | [42] Scoreboard sampled apb_data_pkt
------------------------------------
Name    Type             Size  Value
------------------------------------
mon2sb  apb_transaction  -     @1615
------------------------------------

UVM_INFO |    ahb_driver.sv | 86 | 435 | uvm_test_top.env_h.ahb_agent_h.drv_h | DRV     | DRV -> DUT RESETn: 1 | HADDR: 1232 | HTRANS: 0 | HWRITE: 1 | HWDATA: 3988292996
UVM_INFO |   ahb_monitor.sv | 65 | 435 | uvm_test_top.env_h.ahb_agent_h.mon_h | MON     | DUT -> MON RESETn: 0 | HADDR: 302 | HTRANS: 0 | HWRITE: 1 | tx.HWDATA: 551041075 | vif.HWDATA: 551041075
UVM_INFO |    apb_driver.sv | 52 | 435 | uvm_test_top.env_h.apb_agent_h.drv_h | DRV     | APB Driving || PRDATA:818087888 1884135891 2643232672 3269254028 1039105817 883450288 1721664357 4057248206 PSLVERR:0 PREADY:255
UVM_INFO |   apb_monitor.sv | 69 | 435 | uvm_test_top.env_h.apb_agent_h.mon_h | MON     | APB Monitor received || PRDATA:4059071986 361112243 2591974613 396664350 722661133 2733833110 2715316662 3582378057 PSLVERR:0 PWDATA:0 PADDR:0 PWRITE:0
UVM_INFO | ahb_apb_scoreboard.sv | 59 | 435 | uvm_test_top.env_h.sb_h | SCO     | [43] Scoreboard sampled ahb_data_pkt
--------------------------------------------
Name       Type             Size  Value     
--------------------------------------------
tx         ahb_transaction  -     @1627     
  HRESETn  integral         1     'h0       
  HADDR    integral         32    'h12e     
  HWDATA   integral         32    'h20d83833
  HWRITE   integral         1     'h1       
  HTRANS   integral         2     'h0       
  HSELAHB  integral         1     'h1       
  HREADY   integral         1     'h1       
--------------------------------------------

UVM_INFO | ahb_apb_scoreboard.sv | 64 | 435 | uvm_test_top.env_h.sb_h | SCO     | [43] Scoreboard sampled apb_data_pkt
------------------------------------
Name    Type             Size  Value
------------------------------------
mon2sb  apb_transaction  -     @1631
------------------------------------

UVM_INFO |   ahb_monitor.sv | 65 | 445 | uvm_test_top.env_h.ahb_agent_h.mon_h | MON     | DUT -> MON RESETn: 1 | HADDR: 1979 | HTRANS: 2 | HWRITE: 1 | tx.HWDATA: 551041075 | vif.HWDATA: 551041075
UVM_INFO |    apb_driver.sv | 52 | 445 | uvm_test_top.env_h.apb_agent_h.drv_h | DRV     | APB Driving || PRDATA:1391466015 1242341087 769871376 3168495725 2865643351 4127329016 324987812 3565424700 PSLVERR:0 PREADY:255
UVM_INFO |   apb_monitor.sv | 69 | 445 | uvm_test_top.env_h.apb_agent_h.mon_h | MON     | APB Monitor received || PRDATA:9114328 2434330544 206493201 2110862782 646082187 1399778138 102516329 306672597 PSLVERR:0 PWDATA:0 PADDR:0 PWRITE:0
UVM_INFO | ahb_apb_scoreboard.sv | 59 | 445 | uvm_test_top.env_h.sb_h | SCO     | [44] Scoreboard sampled ahb_data_pkt
--------------------------------------------
Name       Type             Size  Value     
--------------------------------------------
tx         ahb_transaction  -     @1643     
  HRESETn  integral         1     'h1       
  HADDR    integral         32    'h7bb     
  HWDATA   integral         32    'h20d83833
  HWRITE   integral         1     'h1       
  HTRANS   integral         2     'h2       
  HSELAHB  integral         1     'h1       
  HREADY   integral         1     'h0       
--------------------------------------------

UVM_INFO | ahb_apb_scoreboard.sv | 64 | 445 | uvm_test_top.env_h.sb_h | SCO     | [44] Scoreboard sampled apb_data_pkt
------------------------------------
Name    Type             Size  Value
------------------------------------
mon2sb  apb_transaction  -     @1647
------------------------------------

UVM_INFO |    ahb_driver.sv | 86 | 445 | uvm_test_top.env_h.ahb_agent_h.drv_h | DRV     | DRV -> DUT RESETn: 1 | HADDR: 1529 | HTRANS: 3 | HWRITE: 1 | HWDATA: 253775114
UVM_INFO |   ahb_monitor.sv | 65 | 455 | uvm_test_top.env_h.ahb_agent_h.mon_h | MON     | DUT -> MON RESETn: 1 | HADDR: 1232 | HTRANS: 0 | HWRITE: 1 | tx.HWDATA: 3822340145 | vif.HWDATA: 3822340145
UVM_INFO |    apb_driver.sv | 52 | 455 | uvm_test_top.env_h.apb_agent_h.drv_h | DRV     | APB Driving || PRDATA:281372117 1259844832 1241099478 3646152585 1454934085 2303378299 1267349084 271732089 PSLVERR:0 PREADY:255
UVM_INFO |   apb_monitor.sv | 69 | 455 | uvm_test_top.env_h.apb_agent_h.mon_h | MON     | APB Monitor received || PRDATA:818087888 1884135891 2643232672 3269254028 1039105817 883450288 1721664357 4057248206 PSLVERR:0 PWDATA:0 PADDR:0 PWRITE:0
UVM_INFO | ahb_apb_scoreboard.sv | 59 | 455 | uvm_test_top.env_h.sb_h | SCO     | [45] Scoreboard sampled ahb_data_pkt
--------------------------------------------
Name       Type             Size  Value     
--------------------------------------------
tx         ahb_transaction  -     @1655     
  HRESETn  integral         1     'h1       
  HADDR    integral         32    'h4d0     
  HWDATA   integral         32    'he3d44831
  HWRITE   integral         1     'h1       
  HTRANS   integral         2     'h0       
  HSELAHB  integral         1     'h1       
  HREADY   integral         1     'h1       
--------------------------------------------

UVM_INFO | ahb_apb_scoreboard.sv | 64 | 455 | uvm_test_top.env_h.sb_h | SCO     | [45] Scoreboard sampled apb_data_pkt
------------------------------------
Name    Type             Size  Value
------------------------------------
mon2sb  apb_transaction  -     @1659
------------------------------------

UVM_INFO |   ahb_monitor.sv | 65 | 465 | uvm_test_top.env_h.ahb_agent_h.mon_h | MON     | DUT -> MON RESETn: 1 | HADDR: 1529 | HTRANS: 3 | HWRITE: 1 | tx.HWDATA: 3822340145 | vif.HWDATA: 3822340145
UVM_INFO |    apb_driver.sv | 52 | 465 | uvm_test_top.env_h.apb_agent_h.drv_h | DRV     | APB Driving || PRDATA:3735655272 173561047 808583508 1115514415 1114215474 4281504932 326497014 2383966881 PSLVERR:0 PREADY:255
UVM_INFO |   apb_monitor.sv | 69 | 465 | uvm_test_top.env_h.apb_agent_h.mon_h | MON     | APB Monitor received || PRDATA:1391466015 1242341087 769871376 3168495725 2865643351 4127329016 324987812 3565424700 PSLVERR:0 PWDATA:0 PADDR:0 PWRITE:0
UVM_INFO | ahb_apb_scoreboard.sv | 59 | 465 | uvm_test_top.env_h.sb_h | SCO     | [46] Scoreboard sampled ahb_data_pkt
--------------------------------------------
Name       Type             Size  Value     
--------------------------------------------
tx         ahb_transaction  -     @1667     
  HRESETn  integral         1     'h1       
  HADDR    integral         32    'h5f9     
  HWDATA   integral         32    'he3d44831
  HWRITE   integral         1     'h1       
  HTRANS   integral         2     'h3       
  HSELAHB  integral         1     'h1       
  HREADY   integral         1     'h1       
--------------------------------------------

UVM_INFO | ahb_apb_scoreboard.sv | 64 | 465 | uvm_test_top.env_h.sb_h | SCO     | [46] Scoreboard sampled apb_data_pkt
------------------------------------
Name    Type             Size  Value
------------------------------------
mon2sb  apb_transaction  -     @1671
------------------------------------

UVM_INFO |   ahb_monitor.sv | 65 | 475 | uvm_test_top.env_h.ahb_agent_h.mon_h | MON     | DUT -> MON RESETn: 1 | HADDR: 1529 | HTRANS: 3 | HWRITE: 1 | tx.HWDATA: 3822340145 | vif.HWDATA: 3822340145
UVM_INFO |    apb_driver.sv | 52 | 475 | uvm_test_top.env_h.apb_agent_h.drv_h | DRV     | APB Driving || PRDATA:3361284198 569251898 464717286 952189431 2608787684 4228634932 2926112907 3140709549 PSLVERR:0 PREADY:255
UVM_INFO |   apb_monitor.sv | 69 | 475 | uvm_test_top.env_h.apb_agent_h.mon_h | MON     | APB Monitor received || PRDATA:281372117 1259844832 1241099478 3646152585 1454934085 2303378299 1267349084 271732089 PSLVERR:0 PWDATA:0 PADDR:0 PWRITE:0
UVM_INFO | ahb_apb_scoreboard.sv | 59 | 475 | uvm_test_top.env_h.sb_h | SCO     | [47] Scoreboard sampled ahb_data_pkt
--------------------------------------------
Name       Type             Size  Value     
--------------------------------------------
tx         ahb_transaction  -     @1679     
  HRESETn  integral         1     'h1       
  HADDR    integral         32    'h5f9     
  HWDATA   integral         32    'he3d44831
  HWRITE   integral         1     'h1       
  HTRANS   integral         2     'h3       
  HSELAHB  integral         1     'h1       
  HREADY   integral         1     'h1       
--------------------------------------------

UVM_INFO | ahb_apb_scoreboard.sv | 64 | 475 | uvm_test_top.env_h.sb_h | SCO     | [47] Scoreboard sampled apb_data_pkt
------------------------------------
Name    Type             Size  Value
------------------------------------
mon2sb  apb_transaction  -     @1683
------------------------------------

UVM_INFO |   ahb_monitor.sv | 65 | 485 | uvm_test_top.env_h.ahb_agent_h.mon_h | MON     | DUT -> MON RESETn: 1 | HADDR: 1529 | HTRANS: 3 | HWRITE: 1 | tx.HWDATA: 3822340145 | vif.HWDATA: 3822340145
UVM_INFO |    apb_driver.sv | 52 | 485 | uvm_test_top.env_h.apb_agent_h.drv_h | DRV     | APB Driving || PRDATA:3910604642 1112780459 3583182390 1347009000 3592551140 4051089408 4028821244 664715418 PSLVERR:0 PREADY:255
UVM_INFO |   apb_monitor.sv | 69 | 485 | uvm_test_top.env_h.apb_agent_h.mon_h | MON     | APB Monitor received || PRDATA:3735655272 173561047 808583508 1115514415 1114215474 4281504932 326497014 2383966881 PSLVERR:0 PWDATA:0 PADDR:0 PWRITE:0
UVM_INFO | ahb_apb_scoreboard.sv | 59 | 485 | uvm_test_top.env_h.sb_h | SCO     | [48] Scoreboard sampled ahb_data_pkt
--------------------------------------------
Name       Type             Size  Value     
--------------------------------------------
tx         ahb_transaction  -     @1691     
  HRESETn  integral         1     'h1       
  HADDR    integral         32    'h5f9     
  HWDATA   integral         32    'he3d44831
  HWRITE   integral         1     'h1       
  HTRANS   integral         2     'h3       
  HSELAHB  integral         1     'h1       
  HREADY   integral         1     'h1       
--------------------------------------------

UVM_INFO | ahb_apb_scoreboard.sv | 64 | 485 | uvm_test_top.env_h.sb_h | SCO     | [48] Scoreboard sampled apb_data_pkt
------------------------------------
Name    Type             Size  Value
------------------------------------
mon2sb  apb_transaction  -     @1695
------------------------------------

UVM_INFO |   ahb_monitor.sv | 65 | 495 | uvm_test_top.env_h.ahb_agent_h.mon_h | MON     | DUT -> MON RESETn: 1 | HADDR: 1529 | HTRANS: 3 | HWRITE: 1 | tx.HWDATA: 3822340145 | vif.HWDATA: 3822340145
UVM_INFO |    apb_driver.sv | 52 | 495 | uvm_test_top.env_h.apb_agent_h.drv_h | DRV     | APB Driving || PRDATA:2154719458 115906959 3246987404 13401023 3965191898 2858875551 1839097539 3934436105 PSLVERR:0 PREADY:255
UVM_INFO |   apb_monitor.sv | 69 | 495 | uvm_test_top.env_h.apb_agent_h.mon_h | MON     | APB Monitor received || PRDATA:3361284198 569251898 464717286 952189431 2608787684 4228634932 2926112907 3140709549 PSLVERR:0 PWDATA:0 PADDR:0 PWRITE:0
UVM_INFO | ahb_apb_scoreboard.sv | 59 | 495 | uvm_test_top.env_h.sb_h | SCO     | [49] Scoreboard sampled ahb_data_pkt
--------------------------------------------
Name       Type             Size  Value     
--------------------------------------------
tx         ahb_transaction  -     @1707     
  HRESETn  integral         1     'h1       
  HADDR    integral         32    'h5f9     
  HWDATA   integral         32    'he3d44831
  HWRITE   integral         1     'h1       
  HTRANS   integral         2     'h3       
  HSELAHB  integral         1     'h1       
  HREADY   integral         1     'h1       
--------------------------------------------

UVM_INFO | ahb_apb_scoreboard.sv | 64 | 495 | uvm_test_top.env_h.sb_h | SCO     | [49] Scoreboard sampled apb_data_pkt
------------------------------------
Name    Type             Size  Value
------------------------------------
mon2sb  apb_transaction  -     @1711
------------------------------------

UVM_INFO |    ahb_driver.sv | 86 | 505 | uvm_test_top.env_h.ahb_agent_h.drv_h | DRV     | DRV -> DUT RESETn: 0 | HADDR: 1839 | HTRANS: 0 | HWRITE: 0 | HWDATA: 1495111062
UVM_INFO |   ahb_monitor.sv | 65 | 505 | uvm_test_top.env_h.ahb_agent_h.mon_h | MON     | DUT -> MON RESETn: 1 | HADDR: 1529 | HTRANS: 3 | HWRITE: 1 | tx.HWDATA: 3822340145 | vif.HWDATA: 3822340145
UVM_INFO |   apb_monitor.sv | 69 | 505 | uvm_test_top.env_h.apb_agent_h.mon_h | MON     | APB Monitor received || PRDATA:3910604642 1112780459 3583182390 1347009000 3592551140 4051089408 4028821244 664715418 PSLVERR:0 PWDATA:0 PADDR:0 PWRITE:0
UVM_INFO | ahb_apb_scoreboard.sv | 59 | 505 | uvm_test_top.env_h.sb_h | SCO     | [50] Scoreboard sampled ahb_data_pkt
--------------------------------------------
Name       Type             Size  Value     
--------------------------------------------
tx         ahb_transaction  -     @1715     
  HRESETn  integral         1     'h1       
  HADDR    integral         32    'h5f9     
  HWDATA   integral         32    'he3d44831
  HWRITE   integral         1     'h1       
  HTRANS   integral         2     'h3       
  HSELAHB  integral         1     'h1       
  HREADY   integral         1     'h1       
--------------------------------------------

UVM_INFO | ahb_apb_scoreboard.sv | 64 | 505 | uvm_test_top.env_h.sb_h | SCO     | [50] Scoreboard sampled apb_data_pkt
------------------------------------
Name    Type             Size  Value
------------------------------------
mon2sb  apb_transaction  -     @1719
------------------------------------

UVM_INFO |    ahb_driver.sv | 86 | 515 | uvm_test_top.env_h.ahb_agent_h.drv_h | DRV     | DRV -> DUT RESETn: 1 | HADDR: 821 | HTRANS: 2 | HWRITE: 0 | HWDATA: 2639387166
UVM_INFO |   ahb_monitor.sv | 65 | 515 | uvm_test_top.env_h.ahb_agent_h.mon_h | MON     | DUT -> MON RESETn: 1 | HADDR: 1529 | HTRANS: 3 | HWRITE: 1 | tx.HWDATA: 3822340145 | vif.HWDATA: 3822340145
UVM_INFO |   apb_monitor.sv | 69 | 515 | uvm_test_top.env_h.apb_agent_h.mon_h | MON     | APB Monitor received || PRDATA:2154719458 115906959 3246987404 13401023 3965191898 2858875551 1839097539 3934436105 PSLVERR:0 PWDATA:0 PADDR:0 PWRITE:0
UVM_INFO | ahb_apb_scoreboard.sv | 59 | 515 | uvm_test_top.env_h.sb_h | SCO     | [51] Scoreboard sampled ahb_data_pkt
--------------------------------------------
Name       Type             Size  Value     
--------------------------------------------
tx         ahb_transaction  -     @1727     
  HRESETn  integral         1     'h1       
  HADDR    integral         32    'h5f9     
  HWDATA   integral         32    'he3d44831
  HWRITE   integral         1     'h1       
  HTRANS   integral         2     'h3       
  HSELAHB  integral         1     'h1       
  HREADY   integral         1     'h1       
--------------------------------------------

UVM_INFO | ahb_apb_scoreboard.sv | 64 | 515 | uvm_test_top.env_h.sb_h | SCO     | [51] Scoreboard sampled apb_data_pkt
------------------------------------
Name    Type             Size  Value
------------------------------------
mon2sb  apb_transaction  -     @1731
------------------------------------

UVM_INFO |    ahb_driver.sv | 86 | 525 | uvm_test_top.env_h.ahb_agent_h.drv_h | DRV     | DRV -> DUT RESETn: 1 | HADDR: 1456 | HTRANS: 0 | HWRITE: 0 | HWDATA: 291564617
UVM_INFO |   ahb_monitor.sv | 65 | 525 | uvm_test_top.env_h.ahb_agent_h.mon_h | MON     | DUT -> MON RESETn: 0 | HADDR: 1839 | HTRANS: 0 | HWRITE: 0 | tx.HWDATA: 0 | vif.HWDATA: x
UVM_INFO |   apb_monitor.sv | 69 | 525 | uvm_test_top.env_h.apb_agent_h.mon_h | MON     | APB Monitor received || PRDATA:2154719458 115906959 3246987404 13401023 3965191898 2858875551 1839097539 3934436105 PSLVERR:0 PWDATA:0 PADDR:0 PWRITE:0
UVM_INFO | ahb_apb_scoreboard.sv | 59 | 525 | uvm_test_top.env_h.sb_h | SCO     | [52] Scoreboard sampled ahb_data_pkt
---------------------------------------
Name       Type             Size  Value
---------------------------------------
tx         ahb_transaction  -     @1739
  HRESETn  integral         1     'h0  
  HADDR    integral         32    'h72f
  HWDATA   integral         32    'h0  
  HWRITE   integral         1     'h0  
  HTRANS   integral         2     'h0  
  HSELAHB  integral         1     'h1  
  HREADY   integral         1     'h1  
---------------------------------------

UVM_INFO | ahb_apb_scoreboard.sv | 64 | 525 | uvm_test_top.env_h.sb_h | SCO     | [52] Scoreboard sampled apb_data_pkt
------------------------------------
Name    Type             Size  Value
------------------------------------
mon2sb  apb_transaction  -     @1743
------------------------------------

UVM_INFO |   ahb_monitor.sv | 65 | 535 | uvm_test_top.env_h.ahb_agent_h.mon_h | MON     | DUT -> MON RESETn: 1 | HADDR: 821 | HTRANS: 2 | HWRITE: 0 | tx.HWDATA: 0 | vif.HWDATA: x
UVM_INFO |   apb_monitor.sv | 69 | 535 | uvm_test_top.env_h.apb_agent_h.mon_h | MON     | APB Monitor received || PRDATA:2154719458 115906959 3246987404 13401023 3965191898 2858875551 1839097539 3934436105 PSLVERR:0 PWDATA:0 PADDR:0 PWRITE:0
UVM_INFO | ahb_apb_scoreboard.sv | 59 | 535 | uvm_test_top.env_h.sb_h | SCO     | [53] Scoreboard sampled ahb_data_pkt
---------------------------------------
Name       Type             Size  Value
---------------------------------------
tx         ahb_transaction  -     @1751
  HRESETn  integral         1     'h1  
  HADDR    integral         32    'h335
  HWDATA   integral         32    'h0  
  HWRITE   integral         1     'h0  
  HTRANS   integral         2     'h2  
  HSELAHB  integral         1     'h1  
  HREADY   integral         1     'h0  
---------------------------------------

UVM_INFO | ahb_apb_scoreboard.sv | 64 | 535 | uvm_test_top.env_h.sb_h | SCO     | [53] Scoreboard sampled apb_data_pkt
------------------------------------
Name    Type             Size  Value
------------------------------------
mon2sb  apb_transaction  -     @1755
------------------------------------

UVM_INFO |    ahb_driver.sv | 86 | 535 | uvm_test_top.env_h.ahb_agent_h.drv_h | DRV     | DRV -> DUT RESETn: 1 | HADDR: 1218 | HTRANS: 3 | HWRITE: 0 | HWDATA: 2620645302
UVM_INFO |    ahb_driver.sv | 86 | 545 | uvm_test_top.env_h.ahb_agent_h.drv_h | DRV     | DRV -> DUT RESETn: 0 | HADDR: 1749 | HTRANS: 0 | HWRITE: 1 | HWDATA: 2159820100
UVM_INFO |   ahb_monitor.sv | 65 | 545 | uvm_test_top.env_h.ahb_agent_h.mon_h | MON     | DUT -> MON RESETn: 1 | HADDR: 1456 | HTRANS: 0 | HWRITE: 0 | tx.HWDATA: 0 | vif.HWDATA: x
UVM_INFO |   apb_monitor.sv | 69 | 545 | uvm_test_top.env_h.apb_agent_h.mon_h | MON     | APB Monitor received || PRDATA:2154719458 115906959 3246987404 13401023 3965191898 2858875551 1839097539 3934436105 PSLVERR:0 PWDATA:0 PADDR:0 PWRITE:0
UVM_INFO | ahb_apb_scoreboard.sv | 59 | 545 | uvm_test_top.env_h.sb_h | SCO     | [54] Scoreboard sampled ahb_data_pkt
---------------------------------------
Name       Type             Size  Value
---------------------------------------
tx         ahb_transaction  -     @1763
  HRESETn  integral         1     'h1  
  HADDR    integral         32    'h5b0
  HWDATA   integral         32    'h0  
  HWRITE   integral         1     'h0  
  HTRANS   integral         2     'h0  
  HSELAHB  integral         1     'h1  
  HREADY   integral         1     'h1  
---------------------------------------

UVM_INFO | ahb_apb_scoreboard.sv | 64 | 545 | uvm_test_top.env_h.sb_h | SCO     | [54] Scoreboard sampled apb_data_pkt
------------------------------------
Name    Type             Size  Value
------------------------------------
mon2sb  apb_transaction  -     @1767
------------------------------------

UVM_INFO |    ahb_driver.sv | 86 | 555 | uvm_test_top.env_h.ahb_agent_h.drv_h | DRV     | DRV -> DUT RESETn: 1 | HADDR: 1477 | HTRANS: 2 | HWRITE: 1 | HWDATA: 3906520721
UVM_INFO |   ahb_monitor.sv | 65 | 555 | uvm_test_top.env_h.ahb_agent_h.mon_h | MON     | DUT -> MON RESETn: 1 | HADDR: 1218 | HTRANS: 3 | HWRITE: 0 | tx.HWDATA: 0 | vif.HWDATA: x
UVM_INFO |    apb_driver.sv | 52 | 555 | uvm_test_top.env_h.apb_agent_h.drv_h | DRV     | APB Driving || PRDATA:3010755719 704416109 2622294944 613563954 4031021818 2693067288 333868037 3427516725 PSLVERR:0 PREADY:255
UVM_INFO |   apb_monitor.sv | 69 | 555 | uvm_test_top.env_h.apb_agent_h.mon_h | MON     | APB Monitor received || PRDATA:2154719458 115906959 3246987404 13401023 3965191898 2858875551 1839097539 3934436105 PSLVERR:0 PWDATA:0 PADDR:0 PWRITE:0
UVM_INFO | ahb_apb_scoreboard.sv | 59 | 555 | uvm_test_top.env_h.sb_h | SCO     | [55] Scoreboard sampled ahb_data_pkt
---------------------------------------
Name       Type             Size  Value
---------------------------------------
tx         ahb_transaction  -     @1779
  HRESETn  integral         1     'h1  
  HADDR    integral         32    'h4c2
  HWDATA   integral         32    'h0  
  HWRITE   integral         1     'h0  
  HTRANS   integral         2     'h3  
  HSELAHB  integral         1     'h1  
  HREADY   integral         1     'h1  
---------------------------------------

UVM_INFO | ahb_apb_scoreboard.sv | 64 | 555 | uvm_test_top.env_h.sb_h | SCO     | [55] Scoreboard sampled apb_data_pkt
------------------------------------
Name    Type             Size  Value
------------------------------------
mon2sb  apb_transaction  -     @1783
------------------------------------

UVM_INFO |    ahb_driver.sv | 86 | 565 | uvm_test_top.env_h.ahb_agent_h.drv_h | DRV     | DRV -> DUT RESETn: 1 | HADDR: 1162 | HTRANS: 0 | HWRITE: 1 | HWDATA: 478311266
UVM_INFO |   ahb_monitor.sv | 65 | 565 | uvm_test_top.env_h.ahb_agent_h.mon_h | MON     | DUT -> MON RESETn: 0 | HADDR: 1749 | HTRANS: 0 | HWRITE: 1 | tx.HWDATA: 253775114 | vif.HWDATA: 253775114
UVM_INFO |    apb_driver.sv | 52 | 565 | uvm_test_top.env_h.apb_agent_h.drv_h | DRV     | APB Driving || PRDATA:1892879262 242175461 2936165676 3793635893 2419190861 4235065218 629524758 490501637 PSLVERR:0 PREADY:255
UVM_INFO |   apb_monitor.sv | 69 | 565 | uvm_test_top.env_h.apb_agent_h.mon_h | MON     | APB Monitor received || PRDATA:2154719458 115906959 3246987404 13401023 3965191898 2858875551 1839097539 3934436105 PSLVERR:0 PWDATA:0 PADDR:0 PWRITE:0
UVM_INFO | ahb_apb_scoreboard.sv | 59 | 565 | uvm_test_top.env_h.sb_h | SCO     | [56] Scoreboard sampled ahb_data_pkt
-------------------------------------------
Name       Type             Size  Value    
-------------------------------------------
tx         ahb_transaction  -     @1795    
  HRESETn  integral         1     'h0      
  HADDR    integral         32    'h6d5    
  HWDATA   integral         32    'hf204d0a
  HWRITE   integral         1     'h1      
  HTRANS   integral         2     'h0      
  HSELAHB  integral         1     'h1      
  HREADY   integral         1     'h1      
-------------------------------------------

UVM_INFO | ahb_apb_scoreboard.sv | 64 | 565 | uvm_test_top.env_h.sb_h | SCO     | [56] Scoreboard sampled apb_data_pkt
------------------------------------
Name    Type             Size  Value
------------------------------------
mon2sb  apb_transaction  -     @1799
------------------------------------

UVM_INFO |   ahb_monitor.sv | 65 | 575 | uvm_test_top.env_h.ahb_agent_h.mon_h | MON     | DUT -> MON RESETn: 1 | HADDR: 1477 | HTRANS: 2 | HWRITE: 1 | tx.HWDATA: 253775114 | vif.HWDATA: 253775114
UVM_INFO |    apb_driver.sv | 52 | 575 | uvm_test_top.env_h.apb_agent_h.drv_h | DRV     | APB Driving || PRDATA:857455716 984341549 2849886905 3365753037 3274363879 2321323599 2330298602 839658372 PSLVERR:0 PREADY:255
UVM_INFO |   apb_monitor.sv | 69 | 575 | uvm_test_top.env_h.apb_agent_h.mon_h | MON     | APB Monitor received || PRDATA:3010755719 704416109 2622294944 613563954 4031021818 2693067288 333868037 3427516725 PSLVERR:0 PWDATA:0 PADDR:0 PWRITE:0
UVM_INFO | ahb_apb_scoreboard.sv | 59 | 575 | uvm_test_top.env_h.sb_h | SCO     | [57] Scoreboard sampled ahb_data_pkt
-------------------------------------------
Name       Type             Size  Value    
-------------------------------------------
tx         ahb_transaction  -     @1811    
  HRESETn  integral         1     'h1      
  HADDR    integral         32    'h5c5    
  HWDATA   integral         32    'hf204d0a
  HWRITE   integral         1     'h1      
  HTRANS   integral         2     'h2      
  HSELAHB  integral         1     'h1      
  HREADY   integral         1     'h0      
-------------------------------------------

UVM_INFO | ahb_apb_scoreboard.sv | 64 | 575 | uvm_test_top.env_h.sb_h | SCO     | [57] Scoreboard sampled apb_data_pkt
------------------------------------
Name    Type             Size  Value
------------------------------------
mon2sb  apb_transaction  -     @1815
------------------------------------

UVM_INFO |    ahb_driver.sv | 86 | 575 | uvm_test_top.env_h.ahb_agent_h.drv_h | DRV     | DRV -> DUT RESETn: 1 | HADDR: 2034 | HTRANS: 3 | HWRITE: 1 | HWDATA: 3454620980
UVM_INFO |   ahb_monitor.sv | 65 | 585 | uvm_test_top.env_h.ahb_agent_h.mon_h | MON     | DUT -> MON RESETn: 1 | HADDR: 1162 | HTRANS: 0 | HWRITE: 1 | tx.HWDATA: 3906520721 | vif.HWDATA: 3906520721
UVM_INFO |    apb_driver.sv | 52 | 585 | uvm_test_top.env_h.apb_agent_h.drv_h | DRV     | APB Driving || PRDATA:130620984 3235432258 198205725 73062457 680608809 1406744849 2711231274 2989153706 PSLVERR:0 PREADY:255
UVM_INFO |   apb_monitor.sv | 69 | 585 | uvm_test_top.env_h.apb_agent_h.mon_h | MON     | APB Monitor received || PRDATA:1892879262 242175461 2936165676 3793635893 2419190861 4235065218 629524758 490501637 PSLVERR:0 PWDATA:0 PADDR:0 PWRITE:0
UVM_INFO | ahb_apb_scoreboard.sv | 59 | 585 | uvm_test_top.env_h.sb_h | SCO     | [58] Scoreboard sampled ahb_data_pkt
--------------------------------------------
Name       Type             Size  Value     
--------------------------------------------
tx         ahb_transaction  -     @1823     
  HRESETn  integral         1     'h1       
  HADDR    integral         32    'h48a     
  HWDATA   integral         32    'he8d8c691
  HWRITE   integral         1     'h1       
  HTRANS   integral         2     'h0       
  HSELAHB  integral         1     'h1       
  HREADY   integral         1     'h1       
--------------------------------------------

UVM_INFO | ahb_apb_scoreboard.sv | 64 | 585 | uvm_test_top.env_h.sb_h | SCO     | [58] Scoreboard sampled apb_data_pkt
------------------------------------
Name    Type             Size  Value
------------------------------------
mon2sb  apb_transaction  -     @1827
------------------------------------

UVM_INFO |   ahb_monitor.sv | 65 | 595 | uvm_test_top.env_h.ahb_agent_h.mon_h | MON     | DUT -> MON RESETn: 1 | HADDR: 2034 | HTRANS: 3 | HWRITE: 1 | tx.HWDATA: 3906520721 | vif.HWDATA: 3906520721
UVM_INFO |    apb_driver.sv | 52 | 595 | uvm_test_top.env_h.apb_agent_h.drv_h | DRV     | APB Driving || PRDATA:2326079203 4241427159 293979592 3359364785 4195031851 624648239 2628711287 748548340 PSLVERR:0 PREADY:255
UVM_INFO |   apb_monitor.sv | 69 | 595 | uvm_test_top.env_h.apb_agent_h.mon_h | MON     | APB Monitor received || PRDATA:857455716 984341549 2849886905 3365753037 3274363879 2321323599 2330298602 839658372 PSLVERR:0 PWDATA:0 PADDR:0 PWRITE:0
UVM_INFO | ahb_apb_scoreboard.sv | 59 | 595 | uvm_test_top.env_h.sb_h | SCO     | [59] Scoreboard sampled ahb_data_pkt
--------------------------------------------
Name       Type             Size  Value     
--------------------------------------------
tx         ahb_transaction  -     @1835     
  HRESETn  integral         1     'h1       
  HADDR    integral         32    'h7f2     
  HWDATA   integral         32    'he8d8c691
  HWRITE   integral         1     'h1       
  HTRANS   integral         2     'h3       
  HSELAHB  integral         1     'h1       
  HREADY   integral         1     'h1       
--------------------------------------------

UVM_INFO | ahb_apb_scoreboard.sv | 64 | 595 | uvm_test_top.env_h.sb_h | SCO     | [59] Scoreboard sampled apb_data_pkt
------------------------------------
Name    Type             Size  Value
------------------------------------
mon2sb  apb_transaction  -     @1839
------------------------------------

UVM_INFO |   ahb_monitor.sv | 65 | 605 | uvm_test_top.env_h.ahb_agent_h.mon_h | MON     | DUT -> MON RESETn: 1 | HADDR: 2034 | HTRANS: 3 | HWRITE: 1 | tx.HWDATA: 3906520721 | vif.HWDATA: 3906520721
UVM_INFO |    apb_driver.sv | 52 | 605 | uvm_test_top.env_h.apb_agent_h.drv_h | DRV     | APB Driving || PRDATA:577164715 4181556694 3828006721 17295259 804486300 3593467165 346312361 1932070976 PSLVERR:0 PREADY:255
