# QuestaSim-64 vlog 2021.3_1 Compiler 2021.08 Aug 15 2021
# Start time: 01:00:20 on Mar 02,2025
# vlog -cover sbfcet ahb_interface.sv apb_interface.sv DUT.sv tb_top.sv 
# -- Compiling interface ahb_intf
# -- Compiling interface apb_intf
# -- Compiling module Bridge_Top
# -- Compiling module AHB_slave_interface
# -- Compiling module APB_FSM_Controller
# -- Compiling module AHB_Master
# -- Compiling module APB_Interface
# ** Note: (vlog-2286) tb_top.sv(14): Using implicit +incdir+/pkgs/mentor/questa/2021.3_1/questasim/uvm-1.1d/../verilog_src/uvm-1.1d/src from import uvm_pkg
# -- Compiling package tb_top_sv_unit
# -- Importing package mtiUvm.uvm_pkg (uvm-1.1d Built-in)
# -- Compiling module tb_top
# 
# Top level modules:
# 	AHB_Master
# 	tb_top
# End time: 01:00:22 on Mar 02,2025, Elapsed time: 0:00:02
# Errors: 0, Warnings: 0
# vsim -coverage work.tb_top -voptargs=""+cover=sbfcet"" 
# Start time: 01:00:22 on Mar 02,2025
# ** Note: (vsim-3812) Design is being optimized...
# ** Warning: (vopt-13408) Code coverage will be disabled for some DUs/packages/classes and source files.
# ** Note: (vopt-143) Recognized 1 FSM in module "APB_FSM_Controller(fast)".
# ** Note: (vsim-12126) Error and warning message counts have been restored: Errors=0, Warnings=1.
# //  Questa Sim-64
# //  Version 2021.3_1 linux_x86_64 Aug 15 2021
# //
# //  Copyright 1991-2021 Mentor Graphics Corporation
# //  All Rights Reserved.
# //
# //  QuestaSim and its associated documentation contain trade
# //  secrets and commercial or financial information that are the property of
# //  Mentor Graphics Corporation and are privileged, confidential,
# //  and exempt from disclosure under the Freedom of Information Act,
# //  5 U.S.C. Section 552. Furthermore, this information
# //  is prohibited from disclosure under the Trade Secrets Act,
# //  18 U.S.C. Section 1905.
# //
# Loading sv_std.std
# Loading mtiUvm.uvm_pkg(fast)
# Loading work.tb_top_sv_unit(fast)
# Loading mtiUvm.questa_uvm_pkg(fast)
# Loading work.tb_top(fast)
# Loading work.Bridge_Top(fast)
# Loading work.ahb_intf(fast)
# Loading work.apb_intf(fast)
# Loading /pkgs/mentor/questa/2021.3_1/questasim/uvm-1.1d/linux_x86_64/uvm_dpi.so
# ----------------------------------------------------------------
# UVM-1.1d
# (C) 2007-2013 Mentor Graphics Corporation
# (C) 2007-2013 Cadence Design Systems, Inc.
# (C) 2006-2013 Synopsys, Inc.
# (C) 2011-2013 Cypress Semiconductor Corp.
# ----------------------------------------------------------------
# 
#   ***********       IMPORTANT RELEASE NOTES         ************
# 
#   You are using a version of the UVM library that has been compiled
#   with `UVM_NO_DEPRECATED undefined.
#   See http://www.eda.org/svdb/view.php?id=3313 for more details.
# 
#   You are using a version of the UVM library that has been compiled
#   with `UVM_OBJECT_MUST_HAVE_CONSTRUCTOR undefined.
#   See http://www.eda.org/svdb/view.php?id=3770 for more details.
# 
#       (Specify +UVM_NO_RELNOTES to turn off this notice)
# 
# UVM_INFO verilog_src/questa_uvm_pkg-1.2/src/questa_uvm_pkg.sv(277) @ 0: reporter [Questa UVM] QUESTA_UVM-1.2.3
# UVM_INFO verilog_src/questa_uvm_pkg-1.2/src/questa_uvm_pkg.sv(278) @ 0: reporter [Questa UVM]  questa_uvm::init(+struct)
# UVM_INFO @ 0: reporter [RNTST] Running test ahb_apb_single_read_test...
# UVM_INFO @ 0: reporter [UVMTOP] UVM testbench topology:
# ------------------------------------------------------------------
# Name                       Type                        Size  Value
# ------------------------------------------------------------------
# uvm_test_top               ahb_apb_single_read_test    -     @477 
#   env_h                    ahb_apb_env                 -     @491 
#     ahb_agent_h            ahb_agent                   -     @507 
#       drv_h                ahb_driver                  -     @651 
#         rsp_port           uvm_analysis_port           -     @666 
#         seq_item_port      uvm_seq_item_pull_port      -     @658 
#       mon_h                ahb_monitor                 -     @636 
#         ahb_analysis_port  uvm_analysis_port           -     @643 
#       sequencer_h          ahb_sequencer               -     @674 
#         rsp_export         uvm_analysis_export         -     @681 
#         seq_item_export    uvm_seq_item_pull_imp       -     @775 
#         arbitration_queue  array                       0     -    
#         lock_queue         array                       0     -    
#         num_last_reqs      integral                    32    'd1  
#         num_last_rsps      integral                    32    'd1  
#     apb_agent_h            apb_agent                   -     @514 
#       drv_h                apb_driver                  -     @807 
#         rsp_port           uvm_analysis_port           -     @822 
#         seq_item_port      uvm_seq_item_pull_port      -     @814 
#       mon_h                apb_monitor                 -     @792 
#         apb_analysis_port  uvm_analysis_port           -     @799 
#       sequencer_h          apb_sequencer               -     @830 
#         rsp_export         uvm_analysis_export         -     @837 
#         seq_item_export    uvm_seq_item_pull_imp       -     @931 
#         arbitration_queue  array                       0     -    
#         lock_queue         array                       0     -    
#         num_last_reqs      integral                    32    'd1  
#         num_last_rsps      integral                    32    'd1  
#     sb_h                   scoreboard                  -     @521 
#       ahb_fifo             uvm_tlm_analysis_fifo #(T)  -     @528 
#         analysis_export    uvm_analysis_imp            -     @567 
#         get_ap             uvm_analysis_port           -     @559 
#         get_peek_export    uvm_get_peek_imp            -     @543 
#         put_ap             uvm_analysis_port           -     @551 
#         put_export         uvm_put_imp                 -     @535 
#       apb_fifo             uvm_tlm_analysis_fifo #(T)  -     @575 
#         analysis_export    uvm_analysis_imp            -     @614 
#         get_ap             uvm_analysis_port           -     @606 
#         get_peek_export    uvm_get_peek_imp            -     @590 
#         put_ap             uvm_analysis_port           -     @598 
#         put_export         uvm_put_imp                 -     @582 
# ------------------------------------------------------------------
# 
# UVM_INFO apb_driver.sv(52) @ 5: uvm_test_top.env_h.apb_agent_h.drv_h [DRV] APB Driving || PRDATA:207271956 1737914504 736362435 2341635248 2271692664 2295784075 2363901913 575911169 PSLVERR:0 PREADY:255
# UVM_INFO ahb_monitor.sv(65) @ 15: uvm_test_top.env_h.ahb_agent_h.mon_h [MON] DUT -> MON RESETn: 0 | HADDR: 0 | HTRANS: 0 | HWRITE: 0 | HWDATA: 0
# UVM_INFO apb_driver.sv(52) @ 15: uvm_test_top.env_h.apb_agent_h.drv_h [DRV] APB Driving || PRDATA:2973147365 1866605185 1749237970 35180604 1661509586 3560044823 2648665736 1396295376 PSLVERR:0 PREADY:255
# UVM_INFO apb_monitor.sv(69) @ 15: uvm_test_top.env_h.apb_agent_h.mon_h [MON] APB Monitor received || PRDATA:0 0 0 0 0 0 0 0 PSLVERR:0 PWDATA:0 PADDR:0 PWRITE:0
# UVM_INFO ahb_apb_scoreboard.sv(59) @ 15: uvm_test_top.env_h.sb_h [SCO] [1] Scoreboard sampled ahb_data_pkt
# ---------------------------------------------
# Name          Type             Size  Value   
# ---------------------------------------------
# tx            ahb_transaction  -     @1013   
#   trans_type  t_type           32    AHB_READ
#   HRESETn     integral         1     'h0     
#   HADDR       integral         32    'h0     
#   HWDATA      integral         32    'h0     
#   HWRITE      integral         1     'h0     
#   HTRANS      integral         2     'h0     
#   HSELAHB     integral         1     'h0     
#   HREADY      integral         1     'h0     
# ---------------------------------------------
# 
# UVM_INFO ahb_apb_scoreboard.sv(64) @ 15: uvm_test_top.env_h.sb_h [SCO] [1] Scoreboard sampled apb_data_pkt
# ------------------------------------
# Name    Type             Size  Value
# ------------------------------------
# mon2sb  apb_transaction  -     @1017
# ------------------------------------
# 
# UVM_INFO ahb_monitor.sv(65) @ 25: uvm_test_top.env_h.ahb_agent_h.mon_h [MON] DUT -> MON RESETn: 0 | HADDR: 0 | HTRANS: 0 | HWRITE: 0 | HWDATA: 0
# UVM_INFO apb_driver.sv(52) @ 25: uvm_test_top.env_h.apb_agent_h.drv_h [DRV] APB Driving || PRDATA:2759469812 2955870099 2058384241 1061404423 1838437175 3510195033 3955735731 4242305567 PSLVERR:0 PREADY:255
# UVM_INFO apb_monitor.sv(69) @ 25: uvm_test_top.env_h.apb_agent_h.mon_h [MON] APB Monitor received || PRDATA:207271956 1737914504 736362435 2341635248 2271692664 2295784075 2363901913 575911169 PSLVERR:0 PWDATA:0 PADDR:0 PWRITE:0
# UVM_INFO ahb_apb_scoreboard.sv(59) @ 25: uvm_test_top.env_h.sb_h [SCO] [2] Scoreboard sampled ahb_data_pkt
# ---------------------------------------------
# Name          Type             Size  Value   
# ---------------------------------------------
# tx            ahb_transaction  -     @1025   
#   trans_type  t_type           32    AHB_READ
#   HRESETn     integral         1     'h0     
#   HADDR       integral         32    'h0     
#   HWDATA      integral         32    'h0     
#   HWRITE      integral         1     'h0     
#   HTRANS      integral         2     'h0     
#   HSELAHB     integral         1     'h0     
#   HREADY      integral         1     'h0     
# ---------------------------------------------
# 
# UVM_INFO ahb_apb_scoreboard.sv(64) @ 25: uvm_test_top.env_h.sb_h [SCO] [2] Scoreboard sampled apb_data_pkt
# ------------------------------------
# Name    Type             Size  Value
# ------------------------------------
# mon2sb  apb_transaction  -     @1029
# ------------------------------------
# 
# UVM_INFO ahb_driver.sv(86) @ 25: uvm_test_top.env_h.ahb_agent_h.drv_h [DRV] DRV -> DUT RESETn: 0 | HADDR: 765 | HTRANS: 0 | HWRITE: 0 | HWDATA: 6
# UVM_INFO ahb_driver.sv(86) @ 35: uvm_test_top.env_h.ahb_agent_h.drv_h [DRV] DRV -> DUT RESETn: 1 | HADDR: 1151 | HTRANS: 2 | HWRITE: 0 | HWDATA: 14
# UVM_INFO ahb_monitor.sv(65) @ 35: uvm_test_top.env_h.ahb_agent_h.mon_h [MON] DUT -> MON RESETn: 0 | HADDR: 0 | HTRANS: 0 | HWRITE: 0 | HWDATA: 0
# UVM_INFO apb_monitor.sv(69) @ 35: uvm_test_top.env_h.apb_agent_h.mon_h [MON] APB Monitor received || PRDATA:2973147365 1866605185 1749237970 35180604 1661509586 3560044823 2648665736 1396295376 PSLVERR:0 PWDATA:0 PADDR:0 PWRITE:0
# UVM_INFO ahb_apb_scoreboard.sv(59) @ 35: uvm_test_top.env_h.sb_h [SCO] [3] Scoreboard sampled ahb_data_pkt
# ---------------------------------------------
# Name          Type             Size  Value   
# ---------------------------------------------
# tx            ahb_transaction  -     @1038   
#   trans_type  t_type           32    AHB_READ
#   HRESETn     integral         1     'h0     
#   HADDR       integral         32    'h0     
#   HWDATA      integral         32    'h0     
#   HWRITE      integral         1     'h0     
#   HTRANS      integral         2     'h0     
#   HSELAHB     integral         1     'h0     
#   HREADY      integral         1     'h1     
# ---------------------------------------------
# 
# UVM_INFO ahb_apb_scoreboard.sv(64) @ 35: uvm_test_top.env_h.sb_h [SCO] [3] Scoreboard sampled apb_data_pkt
# ------------------------------------
# Name    Type             Size  Value
# ------------------------------------
# mon2sb  apb_transaction  -     @1042
# ------------------------------------
# 
# UVM_INFO ahb_driver.sv(86) @ 45: uvm_test_top.env_h.ahb_agent_h.drv_h [DRV] DRV -> DUT RESETn: 1 | HADDR: 108 | HTRANS: 0 | HWRITE: 0 | HWDATA: 3
# UVM_INFO ahb_monitor.sv(65) @ 45: uvm_test_top.env_h.ahb_agent_h.mon_h [MON] DUT -> MON RESETn: 0 | HADDR: 765 | HTRANS: 0 | HWRITE: 0 | HWDATA: 0
# UVM_INFO apb_monitor.sv(69) @ 45: uvm_test_top.env_h.apb_agent_h.mon_h [MON] APB Monitor received || PRDATA:2759469812 2955870099 2058384241 1061404423 1838437175 3510195033 3955735731 4242305567 PSLVERR:0 PWDATA:0 PADDR:0 PWRITE:0
# UVM_INFO ahb_apb_scoreboard.sv(59) @ 45: uvm_test_top.env_h.sb_h [SCO] [4] Scoreboard sampled ahb_data_pkt
# ---------------------------------------------
# Name          Type             Size  Value   
# ---------------------------------------------
# tx            ahb_transaction  -     @1050   
#   trans_type  t_type           32    AHB_READ
#   HRESETn     integral         1     'h0     
#   HADDR       integral         32    'h2fd   
#   HWDATA      integral         32    'h0     
#   HWRITE      integral         1     'h0     
#   HTRANS      integral         2     'h0     
#   HSELAHB     integral         1     'h1     
#   HREADY      integral         1     'h1     
# ---------------------------------------------
# 
# UVM_INFO ahb_apb_scoreboard.sv(64) @ 45: uvm_test_top.env_h.sb_h [SCO] [4] Scoreboard sampled apb_data_pkt
# ------------------------------------
# Name    Type             Size  Value
# ------------------------------------
# mon2sb  apb_transaction  -     @1054
# ------------------------------------
# 
# UVM_INFO ahb_monitor.sv(65) @ 55: uvm_test_top.env_h.ahb_agent_h.mon_h [MON] DUT -> MON RESETn: 1 | HADDR: 1151 | HTRANS: 2 | HWRITE: 0 | HWDATA: 0
# UVM_INFO apb_monitor.sv(69) @ 55: uvm_test_top.env_h.apb_agent_h.mon_h [MON] APB Monitor received || PRDATA:2759469812 2955870099 2058384241 1061404423 1838437175 3510195033 3955735731 4242305567 PSLVERR:0 PWDATA:0 PADDR:0 PWRITE:0
# UVM_INFO ahb_apb_scoreboard.sv(59) @ 55: uvm_test_top.env_h.sb_h [SCO] [5] Scoreboard sampled ahb_data_pkt
# ---------------------------------------------
# Name          Type             Size  Value   
# ---------------------------------------------
# tx            ahb_transaction  -     @1058   
#   trans_type  t_type           32    AHB_READ
#   HRESETn     integral         1     'h1     
#   HADDR       integral         32    'h47f   
#   HWDATA      integral         32    'h0     
#   HWRITE      integral         1     'h0     
#   HTRANS      integral         2     'h2     
#   HSELAHB     integral         1     'h1     
#   HREADY      integral         1     'h0     
# ---------------------------------------------
# 
# UVM_INFO ahb_apb_scoreboard.sv(64) @ 55: uvm_test_top.env_h.sb_h [SCO] [5] Scoreboard sampled apb_data_pkt
# ------------------------------------
# Name    Type             Size  Value
# ------------------------------------
# mon2sb  apb_transaction  -     @1062
# ------------------------------------
# 
# UVM_INFO ahb_monitor.sv(65) @ 65: uvm_test_top.env_h.ahb_agent_h.mon_h [MON] DUT -> MON RESETn: 1 | HADDR: 108 | HTRANS: 0 | HWRITE: 0 | HWDATA: 0
# UVM_INFO apb_monitor.sv(69) @ 65: uvm_test_top.env_h.apb_agent_h.mon_h [MON] APB Monitor received || PRDATA:2759469812 2955870099 2058384241 1061404423 1838437175 3510195033 3955735731 4242305567 PSLVERR:0 PWDATA:0 PADDR:0 PWRITE:0
# UVM_INFO ahb_apb_scoreboard.sv(59) @ 65: uvm_test_top.env_h.sb_h [SCO] [6] Scoreboard sampled ahb_data_pkt
# ---------------------------------------------
# Name          Type             Size  Value   
# ---------------------------------------------
# tx            ahb_transaction  -     @1066   
#   trans_type  t_type           32    AHB_READ
#   HRESETn     integral         1     'h1     
#   HADDR       integral         32    'h6c    
#   HWDATA      integral         32    'h0     
#   HWRITE      integral         1     'h0     
#   HTRANS      integral         2     'h0     
#   HSELAHB     integral         1     'h1     
#   HREADY      integral         1     'h1     
# ---------------------------------------------
# 
# UVM_INFO ahb_apb_scoreboard.sv(64) @ 65: uvm_test_top.env_h.sb_h [SCO] [6] Scoreboard sampled apb_data_pkt
# ------------------------------------
# Name    Type             Size  Value
# ------------------------------------
# mon2sb  apb_transaction  -     @1070
# ------------------------------------
# 
# UVM_INFO ahb_monitor.sv(65) @ 75: uvm_test_top.env_h.ahb_agent_h.mon_h [MON] DUT -> MON RESETn: 1 | HADDR: 108 | HTRANS: 0 | HWRITE: 0 | HWDATA: 0
# UVM_INFO apb_monitor.sv(69) @ 75: uvm_test_top.env_h.apb_agent_h.mon_h [MON] APB Monitor received || PRDATA:2759469812 2955870099 2058384241 1061404423 1838437175 3510195033 3955735731 4242305567 PSLVERR:0 PWDATA:0 PADDR:0 PWRITE:0
# UVM_INFO ahb_apb_scoreboard.sv(59) @ 75: uvm_test_top.env_h.sb_h [SCO] [7] Scoreboard sampled ahb_data_pkt
# ---------------------------------------------
# Name          Type             Size  Value   
# ---------------------------------------------
# tx            ahb_transaction  -     @1074   
#   trans_type  t_type           32    AHB_READ
#   HRESETn     integral         1     'h1     
#   HADDR       integral         32    'h6c    
#   HWDATA      integral         32    'h0     
#   HWRITE      integral         1     'h0     
#   HTRANS      integral         2     'h0     
#   HSELAHB     integral         1     'h1     
#   HREADY      integral         1     'h1     
# ---------------------------------------------
# 
# UVM_INFO ahb_apb_scoreboard.sv(64) @ 75: uvm_test_top.env_h.sb_h [SCO] [7] Scoreboard sampled apb_data_pkt
# ------------------------------------
# Name    Type             Size  Value
# ------------------------------------
# mon2sb  apb_transaction  -     @1078
# ------------------------------------
# 
# UVM_INFO ahb_monitor.sv(65) @ 85: uvm_test_top.env_h.ahb_agent_h.mon_h [MON] DUT -> MON RESETn: 1 | HADDR: 108 | HTRANS: 0 | HWRITE: 0 | HWDATA: 0
# UVM_INFO apb_monitor.sv(69) @ 85: uvm_test_top.env_h.apb_agent_h.mon_h [MON] APB Monitor received || PRDATA:2759469812 2955870099 2058384241 1061404423 1838437175 3510195033 3955735731 4242305567 PSLVERR:0 PWDATA:0 PADDR:0 PWRITE:0
# UVM_INFO ahb_apb_scoreboard.sv(59) @ 85: uvm_test_top.env_h.sb_h [SCO] [8] Scoreboard sampled ahb_data_pkt
# ---------------------------------------------
# Name          Type             Size  Value   
# ---------------------------------------------
# tx            ahb_transaction  -     @1082   
#   trans_type  t_type           32    AHB_READ
#   HRESETn     integral         1     'h1     
#   HADDR       integral         32    'h6c    
#   HWDATA      integral         32    'h0     
#   HWRITE      integral         1     'h0     
#   HTRANS      integral         2     'h0     
#   HSELAHB     integral         1     'h1     
#   HREADY      integral         1     'h1     
# ---------------------------------------------
# 
# UVM_INFO ahb_apb_scoreboard.sv(64) @ 85: uvm_test_top.env_h.sb_h [SCO] [8] Scoreboard sampled apb_data_pkt
# ------------------------------------
# Name    Type             Size  Value
# ------------------------------------
# mon2sb  apb_transaction  -     @1086
# ------------------------------------
# 
# UVM_INFO verilog_src/uvm-1.1d/src/base/uvm_objection.svh(1267) @ 95: reporter [TEST_DONE] 'run' phase is ready to proceed to the 'extract' phase
# UVM_INFO ahb_monitor.sv(65) @ 95: uvm_test_top.env_h.ahb_agent_h.mon_h [MON] DUT -> MON RESETn: 1 | HADDR: 108 | HTRANS: 0 | HWRITE: 0 | HWDATA: 0
# UVM_INFO apb_monitor.sv(69) @ 95: uvm_test_top.env_h.apb_agent_h.mon_h [MON] APB Monitor received || PRDATA:2759469812 2955870099 2058384241 1061404423 1838437175 3510195033 3955735731 4242305567 PSLVERR:0 PWDATA:0 PADDR:0 PWRITE:0
# UVM_INFO ahb_apb_scoreboard.sv(59) @ 95: uvm_test_top.env_h.sb_h [SCO] [9] Scoreboard sampled ahb_data_pkt
# ---------------------------------------------
# Name          Type             Size  Value   
# ---------------------------------------------
# tx            ahb_transaction  -     @1090   
#   trans_type  t_type           32    AHB_READ
#   HRESETn     integral         1     'h1     
#   HADDR       integral         32    'h6c    
#   HWDATA      integral         32    'h0     
#   HWRITE      integral         1     'h0     
#   HTRANS      integral         2     'h0     
#   HSELAHB     integral         1     'h1     
#   HREADY      integral         1     'h1     
# ---------------------------------------------
# 
# UVM_INFO ahb_apb_scoreboard.sv(64) @ 95: uvm_test_top.env_h.sb_h [SCO] [9] Scoreboard sampled apb_data_pkt
# ------------------------------------
# Name    Type             Size  Value
# ------------------------------------
# mon2sb  apb_transaction  -     @1094
# ------------------------------------
# 
# 
# === Scoreboard Report ===
# AHB Packets: 9
# APB Packets: 9
# Verified Transactions:           4
# Unverified Transactions:           5
# === Coverage Report ===
# RESET Coverage: 100.000000%
# WRITE Coverage: 0.000000%
# READ Coverage: 100.000000%
# Data coverage: 0.000000%
# === End of Report ===
# 
# 
# --- UVM Report Summary ---
# 
# ** Report counts by severity
# UVM_INFO :   47
# UVM_WARNING :    0
# UVM_ERROR :    0
# UVM_FATAL :    0
# ** Report counts by id
# [DRV]     6
# [MON]    18
# [Questa UVM]     2
# [RNTST]     1
# [SCO]    18
# [TEST_DONE]     1
# [UVMTOP]     1
# ** Note: $finish    : /pkgs/mentor/questa/2021.3_1/questasim/linux_x86_64/../verilog_src/uvm-1.1d/src/base/uvm_root.svh(430)
#    Time: 95 ns  Iteration: 53  Instance: /tb_top
# End time: 01:00:29 on Mar 02,2025, Elapsed time: 0:00:07
# Errors: 0, Warnings: 1
